Circuit: * C:\Users\Maxi\Desktop\CIRCUITOS MICROELECTRONICOS\Clases\ParcialesLTspice\181223polarizacion.asc

Direct Newton iteration for .op point succeeded.
Semiconductor Device Operating Points:
                        --- Bipolar Transistors ---
Name:       q2          q1
Model:    bc548b      bc548b
Ib:       4.59e-04    9.52e-06
Ic:      -9.13e-04    2.46e-03
Vbe:     -4.55e+00    6.78e-01
Vbc:      6.45e-01   -3.12e+01
Vce:     -5.20e+00    3.18e+01
BetaDC:  -1.99e+00    2.59e+02
Gm:      -1.75e-02    9.35e-02
Rpi:      1.00e+12    2.84e+03
Rx:       0.00e+00    0.00e+00
Ro:       5.70e+01    3.81e+04
Cbe:      2.97e-12    6.82e-11
Cbc:      1.86e-10    1.48e-12
Cjs:      0.00e+00    0.00e+00
BetaAC:  -1.75e+10    2.66e+02
Cbx:      0.00e+00    0.00e+00
Ft:       1.47e+07    2.14e+08



Date: Sun Nov 03 19:53:46 2024
Total elapsed time: 0.011 seconds.

tnom = 27
temp = 27
method = trap
totiter = 10
traniter = 0
tranpoints = 0
accept = 0
rejected = 0
matrix size = 10
fillins = 0
solver = Normal
Matrix Compiler1: 596 bytes object code size
Matrix Compiler2: 910 bytes object code size
