time	V(g1)	V(n002)
0.000000000000000e+00	0.000000e+00	3.163680e-14
4.882812361904632e-13	9.203885e-09	1.169344e-07
9.765624723809263e-13	1.840777e-08	1.566352e-07
9.765624723809266e-12	1.840777e-07	7.110811e-08
1.855468697523761e-11	3.497476e-07	-2.611842e-09
2.734374922666595e-11	5.154175e-07	-6.452470e-08
3.613281147809429e-11	6.810874e-07	-1.146305e-07
4.492187372952262e-11	8.467574e-07	-1.529291e-07
5.371093598095097e-11	1.012427e-06	-1.794207e-07
6.249999823237928e-11	1.178097e-06	-1.941051e-07
4.999999858590343e-10	9.424777e-06	-1.355812e-05
9.999999717180685e-10	1.884955e-05	-4.891398e-05
1.999999943436137e-09	3.769910e-05	-1.616330e-04
3.999999886872274e-09	7.539814e-05	-4.750450e-04
7.999999773744548e-09	1.507958e-04	-1.226018e-03
1.599999954748910e-08	3.015878e-04	-2.828804e-03
7.168526721069874e-08	1.353941e-03	-1.415384e-02
1.273705348739084e-07	2.401458e-03	-2.546111e-02
1.830558025371180e-07	3.444137e-03	-3.675062e-02
2.387410702003277e-07	4.481979e-03	-4.802237e-02
2.944263378635373e-07	5.514984e-03	-5.927636e-02
3.501116055267469e-07	6.543152e-03	-7.051258e-02
4.057968731899564e-07	7.566482e-03	-8.173104e-02
5.104285696185279e-07	9.476333e-03	-1.027871e-01
6.150602660470994e-07	1.132603e-02	-1.232648e-01
7.196919624756708e-07	1.311558e-02	-1.431639e-01
8.243236589042423e-07	1.484497e-02	-1.624846e-01
9.289553553328137e-07	1.651421e-02	-1.812268e-01
1.033587051761385e-06	1.812330e-02	-1.993905e-01
1.138218748189956e-06	1.967224e-02	-2.169757e-01
1.298654016047099e-06	2.189139e-02	-2.423589e-01
1.459089283904242e-06	2.384659e-02	-2.647332e-01
1.619524551761385e-06	2.553782e-02	-2.840988e-01
1.779959819618528e-06	2.696509e-02	-3.004556e-01
1.940395087475671e-06	2.812840e-02	-3.138036e-01
2.100830355332814e-06	2.902774e-02	-3.241428e-01
2.261265623189956e-06	2.966313e-02	-3.314732e-01
2.449602676761385e-06	2.995926e-02	-3.346049e-01
2.637939730332815e-06	2.985645e-02	-3.331104e-01
2.826276783904244e-06	2.935470e-02	-3.269897e-01
3.014613837475673e-06	2.845401e-02	-3.162429e-01
3.202950891047102e-06	2.715438e-02	-3.008699e-01
3.391287944618531e-06	2.545581e-02	-2.808708e-01
3.579624998189960e-06	2.335831e-02	-2.562455e-01
3.691232141047102e-06	2.196181e-02	-2.400082e-01
3.802839283904245e-06	2.047690e-02	-2.228745e-01
3.914446426761387e-06	1.890356e-02	-2.048444e-01
4.026053569618530e-06	1.724181e-02	-1.859178e-01
4.137660712475672e-06	1.549163e-02	-1.660948e-01
4.249267855332815e-06	1.365304e-02	-1.453754e-01
4.360874998189957e-06	1.172603e-02	-1.237595e-01
4.430629462475671e-06	1.049884e-02	-1.100897e-01
4.500383926761384e-06	9.257520e-03	-9.632561e-02
4.570138391047098e-06	8.002080e-03	-8.246727e-02
4.639892855332812e-06	6.732516e-03	-6.851467e-02
4.709647319618526e-06	5.448828e-03	-5.446779e-02
4.779401783904240e-06	4.151017e-03	-4.032665e-02
4.849156248189954e-06	2.839083e-03	-2.609123e-02
4.946812498189953e-06	1.002374e-03	-6.276894e-03
4.995640623189953e-06	8.217221e-05	3.602699e-03
5.093296873189952e-06	-1.757598e-03	2.326012e-02
5.239781248189951e-06	-4.502691e-03	5.235552e-02
5.386265623189950e-06	-7.209668e-03	8.077126e-02
5.504848212475664e-06	-9.384913e-03	1.033631e-01
5.623430801761378e-06	-1.148033e-02	1.250000e-01
5.742013391047091e-06	-1.349591e-02	1.456819e-01
5.860595980332805e-06	-1.543165e-02	1.654088e-01
5.979178569618519e-06	-1.728757e-02	1.841807e-01
6.097761158904232e-06	-1.906365e-02	2.019976e-01
6.216343748189945e-06	-2.075990e-02	2.188595e-01
6.425607141047087e-06	-2.348640e-02	2.455885e-01
6.634870533904229e-06	-2.573483e-02	2.675732e-01
6.844133926761371e-06	-2.750517e-02	2.848134e-01
7.053397319618512e-06	-2.879745e-02	2.973093e-01
7.262660712475654e-06	-2.961164e-02	3.050608e-01
7.471924105332796e-06	-2.994776e-02	3.080679e-01
7.681187498189937e-06	-2.980581e-02	3.063307e-01
7.862549105332793e-06	-2.917613e-02	3.001642e-01
8.043910712475650e-06	-2.821209e-02	2.906208e-01
8.225272319618505e-06	-2.691369e-02	2.777002e-01
8.406633926761362e-06	-2.528093e-02	2.614027e-01
8.587995533904217e-06	-2.331381e-02	2.417281e-01
8.769357141047074e-06	-2.101234e-02	2.186764e-01
8.950718748189930e-06	-1.837651e-02	1.922477e-01
9.055350444618500e-06	-1.675995e-02	1.758577e-01
9.159982141047072e-06	-1.508972e-02	1.588105e-01
9.264613837475642e-06	-1.336580e-02	1.411060e-01
9.369245533904213e-06	-1.158820e-02	1.227444e-01
9.473877230332783e-06	-9.756908e-03	1.037255e-01
9.578508926761355e-06	-7.871937e-03	8.404940e-02
9.683140623189925e-06	-5.933281e-03	6.371611e-02
9.829624998189924e-06	-3.205363e-03	3.485798e-02
9.927281248189924e-06	-1.370239e-03	1.530612e-02
9.976109373189924e-06	-4.503108e-04	5.463086e-03
1.007376562318992e-05	1.389951e-03	-1.431117e-02
1.014352008747564e-05	2.707827e-03	-2.854501e-02
1.021327455176135e-05	4.014294e-03	-4.270801e-02
1.028302901604707e-05	5.309353e-03	-5.680016e-02
1.035278348033278e-05	6.593002e-03	-7.082148e-02
1.042253794461849e-05	7.865243e-03	-8.477196e-02
1.049229240890421e-05	9.126075e-03	-9.865159e-02
1.056204687318992e-05	1.037550e-02	-1.124604e-01
1.067365401604706e-05	1.234403e-02	-1.343520e-01
1.078526115890420e-05	1.422991e-02	-1.554026e-01
1.089686830176135e-05	1.603315e-02	-1.756124e-01
1.100847544461849e-05	1.775373e-02	-1.949812e-01
1.112008258747563e-05	1.939166e-02	-2.135091e-01
1.123168973033277e-05	2.094694e-02	-2.311961e-01
1.134329687318992e-05	2.241958e-02	-2.480422e-01
1.153163392676134e-05	2.466015e-02	-2.738478e-01
1.171997098033277e-05	2.650748e-02	-2.950875e-01
1.190830803390420e-05	2.796155e-02	-3.117614e-01
1.209664508747563e-05	2.902238e-02	-3.238694e-01
1.228498214104705e-05	2.968996e-02	-3.314115e-01
1.247331919461848e-05	2.996430e-02	-3.343878e-01
1.266165624818991e-05	2.984538e-02	-3.327982e-01
1.282209151604705e-05	2.935746e-02	-3.267428e-01
1.298252678390419e-05	2.859886e-02	-3.176090e-01
1.314296205176133e-05	2.756958e-02	-3.053968e-01
1.330339731961847e-05	2.626962e-02	-2.901062e-01
1.346383258747562e-05	2.469898e-02	-2.717372e-01
1.362426785533276e-05	2.285765e-02	-2.502898e-01
1.378470312318990e-05	2.074565e-02	-2.257640e-01
1.388933481961847e-05	1.925923e-02	-2.086633e-01
1.399396651604704e-05	1.770721e-02	-1.909332e-01
1.409859821247561e-05	1.608957e-02	-1.725736e-01
1.420322990890418e-05	1.440634e-02	-1.535845e-01
1.430786160533276e-05	1.265749e-02	-1.339661e-01
1.441249330176133e-05	1.084304e-02	-1.137181e-01
1.451712499818990e-05	8.962980e-03	-9.284071e-02
1.457292856961847e-05	7.950679e-03	-8.166990e-02
1.462873214104704e-05	6.931761e-03	-7.046697e-02
1.468453571247561e-05	5.906224e-03	-5.923192e-02
1.474033928390418e-05	4.874070e-03	-4.796474e-02
1.479614285533275e-05	3.835297e-03	-3.666543e-02
1.485194642676132e-05	2.789907e-03	-2.533401e-02
1.490774999818989e-05	1.737898e-03	-1.397046e-02
1.495657812318989e-05	8.183816e-04	-4.073618e-03
1.505423437318989e-05	-1.022096e-03	1.564056e-02
1.520071874818989e-05	-3.773438e-03	4.487531e-02
1.534720312318989e-05	-6.492837e-03	7.349278e-02
1.545881026604704e-05	-8.552471e-03	9.494882e-02
1.557041740890419e-05	-1.054652e-02	1.156034e-01
1.568202455176133e-05	-1.247497e-02	1.354566e-01
1.579363169461848e-05	-1.433784e-02	1.545083e-01
1.590523883747562e-05	-1.613511e-02	1.727586e-01
1.601684598033277e-05	-1.786680e-02	1.902074e-01
1.612845312318992e-05	-1.953289e-02	2.068548e-01
1.631679017676135e-05	-2.214350e-02	2.326009e-01
1.650512723033278e-05	-2.438154e-02	2.546051e-01
1.669346428390422e-05	-2.624701e-02	2.728675e-01
1.688180133747565e-05	-2.773992e-02	2.873879e-01
1.707013839104709e-05	-2.886026e-02	2.981665e-01
1.725847544461852e-05	-2.960804e-02	3.052033e-01
1.744681249818995e-05	-2.998325e-02	3.084981e-01
1.764212499818996e-05	-2.983472e-02	3.069745e-01
1.783743749818996e-05	-2.927665e-02	3.013785e-01
1.803274999818997e-05	-2.830905e-02	2.917102e-01
1.822806249818998e-05	-2.693190e-02	2.779694e-01
1.842337499818998e-05	-2.514522e-02	2.601562e-01
1.861868749818999e-05	-2.294901e-02	2.382706e-01
1.881399999818999e-05	-2.034325e-02	2.123126e-01
1.892560714104714e-05	-1.872614e-02	1.960264e-01
1.903721428390428e-05	-1.703874e-02	1.789107e-01
1.914882142676143e-05	-1.528105e-02	1.609655e-01
1.926042856961858e-05	-1.345307e-02	1.421908e-01
1.937203571247572e-05	-1.155480e-02	1.225866e-01
1.948364285533287e-05	-9.586236e-03	1.021530e-01
1.959524999819001e-05	-7.547386e-03	8.088987e-02
1.974173437319002e-05	-4.846855e-03	5.246853e-02
1.988821874819002e-05	-2.105295e-03	2.336873e-02
1.998587499819003e-05	-2.662465e-04	3.709235e-03
2.013235937319003e-05	2.492040e-03	-2.598625e-02
2.020908928390432e-05	3.938080e-03	-4.166115e-02
2.028581919461861e-05	5.366786e-03	-5.720901e-02
2.036254910533289e-05	6.778160e-03	-7.262985e-02
2.043927901604718e-05	8.172202e-03	-8.792365e-02
2.051600892676147e-05	9.548911e-03	-1.030904e-01
2.059273883747576e-05	1.090829e-02	-1.181302e-01
2.066946874819005e-05	1.225033e-02	-1.330429e-01
2.078805133747576e-05	1.427946e-02	-1.557392e-01
2.090663392676148e-05	1.620436e-02	-1.773423e-01
2.102521651604720e-05	1.802504e-02	-1.978520e-01
2.114379910533292e-05	1.974149e-02	-2.172684e-01
2.126238169461863e-05	2.135372e-02	-2.355916e-01
2.138096428390435e-05	2.286171e-02	-2.528214e-01
2.149954687319007e-05	2.426549e-02	-2.689579e-01
2.168090848033293e-05	2.614441e-02	-2.906473e-01
2.186227008747579e-05	2.764974e-02	-3.079753e-01
2.204363169461866e-05	2.878145e-02	-3.209421e-01
2.222499330176152e-05	2.953956e-02	-3.295476e-01
2.240635490890438e-05	2.992407e-02	-3.337919e-01
2.258771651604724e-05	2.993497e-02	-3.336749e-01
2.276907812319011e-05	2.957227e-02	-3.291966e-01
2.292253794461868e-05	2.891913e-02	-3.212241e-01
2.307599776604726e-05	2.802474e-02	-3.105284e-01
2.322945758747583e-05	2.688909e-02	-2.971095e-01
2.338291740890441e-05	2.551219e-02	-2.809673e-01
2.353637723033299e-05	2.389404e-02	-2.621020e-01
2.368983705176156e-05	2.203462e-02	-2.405134e-01
2.384329687319014e-05	1.993396e-02	-2.162016e-01
2.394792856961871e-05	1.839969e-02	-1.986067e-01
2.405256026604728e-05	1.680394e-02	-1.804352e-01
2.415719196247586e-05	1.514673e-02	-1.616871e-01
2.426182365890443e-05	1.342804e-02	-1.423625e-01
2.436645535533301e-05	1.164787e-02	-1.224613e-01
2.447108705176158e-05	9.806234e-03	-1.019836e-01
2.457571874819016e-05	7.903122e-03	-8.092927e-02
2.462454687319016e-05	7.009534e-03	-7.110350e-02
2.467337499819016e-05	6.111474e-03	-6.125996e-02
2.472220312319016e-05	5.208942e-03	-5.139867e-02
2.477103124819016e-05	4.301938e-03	-4.151962e-02
2.481985937319016e-05	3.390463e-03	-3.162281e-02
2.486868749819017e-05	2.474516e-03	-2.170825e-02
2.491751562319017e-05	1.554098e-03	-1.177592e-02
2.496634374819017e-05	6.343581e-04	-1.883695e-03
2.506399999819017e-05	-1.206046e-03	1.781567e-02
2.521048437319018e-05	-3.955981e-03	4.701461e-02
2.535696874819018e-05	-6.672428e-03	7.558062e-02
2.546857589104732e-05	-8.728725e-03	9.698633e-02
2.558018303390447e-05	-1.071863e-02	1.175836e-01
2.569179017676162e-05	-1.264214e-02	1.373724e-01
2.580339731961876e-05	-1.449925e-02	1.563527e-01
2.591500446247591e-05	-1.628997e-02	1.745245e-01
2.602661160533306e-05	-1.801430e-02	1.918879e-01
2.613821874819020e-05	-1.967224e-02	2.084428e-01
2.633353124819021e-05	-2.236024e-02	2.349221e-01
2.652884374819021e-05	-2.464404e-02	2.573532e-01
2.672415624819022e-05	-2.652362e-02	2.757360e-01
2.691946874819022e-05	-2.799899e-02	2.900707e-01
2.711478124819023e-05	-2.907015e-02	3.003571e-01
2.731009374819024e-05	-2.973709e-02	3.065953e-01
2.750540624819024e-05	-2.999983e-02	3.087853e-01
2.769374330176167e-05	-2.973423e-02	3.061313e-01
2.788208035533311e-05	-2.909088e-02	2.997123e-01
2.807041740890454e-05	-2.806975e-02	2.895282e-01
2.825875446247598e-05	-2.667086e-02	2.755791e-01
2.844709151604741e-05	-2.489420e-02	2.578650e-01
2.863542856961885e-05	-2.273977e-02	2.363859e-01
2.882376562319028e-05	-2.020758e-02	2.111417e-01
2.893537276604742e-05	-1.858200e-02	1.947637e-01
2.904697990890457e-05	-1.688693e-02	1.775632e-01
2.915858705176172e-05	-1.512236e-02	1.595403e-01
2.927019419461886e-05	-1.328829e-02	1.406949e-01
2.938180133747601e-05	-1.138472e-02	1.210269e-01
2.949340848033316e-05	-9.411654e-03	1.005366e-01
2.960501562319030e-05	-7.369088e-03	7.922369e-02
2.975149999819031e-05	-4.665106e-03	5.075158e-02
2.989798437319031e-05	-1.921633e-03	2.161656e-02
2.999564062319031e-05	-8.217221e-05	1.942595e-03
3.028860937319032e-05	5.410392e-03	-5.746701e-02
3.037929017676175e-05	7.094941e-03	-7.590193e-02
3.046997098033318e-05	8.743435e-03	-9.401658e-02
3.056065178390461e-05	1.035587e-02	-1.118110e-01
3.065133258747605e-05	1.193226e-02	-1.292850e-01
3.074201339104748e-05	1.347258e-02	-1.464389e-01
3.083269419461891e-05	1.497686e-02	-1.632724e-01
3.092337499819034e-05	1.644507e-02	-1.797857e-01
3.106288392676177e-05	1.861172e-02	-2.043339e-01
3.120239285533320e-05	2.060129e-02	-2.269229e-01
3.134190178390463e-05	2.241377e-02	-2.475526e-01
3.148141071247607e-05	2.404917e-02	-2.662232e-01
3.162091964104750e-05	2.550748e-02	-2.829346e-01
3.176042856961894e-05	2.678871e-02	-2.976867e-01
3.189993749819037e-05	2.789286e-02	-3.104796e-01
3.208827455176180e-05	2.900374e-02	-3.232458e-01
3.227661160533323e-05	2.970163e-02	-3.311714e-01
3.246494865890467e-05	2.998652e-02	-3.342565e-01
3.265328571247611e-05	2.985842e-02	-3.325011e-01
3.284162276604754e-05	2.931733e-02	-3.259051e-01
3.302995981961897e-05	2.836325e-02	-3.144685e-01
3.321829687319040e-05	2.699617e-02	-2.981914e-01
3.335083035533326e-05	2.578638e-02	-2.838718e-01
3.348336383747613e-05	2.442458e-02	-2.679172e-01
3.361589731961899e-05	2.291078e-02	-2.503274e-01
3.374843080176185e-05	2.124498e-02	-2.311026e-01
3.388096428390471e-05	1.942718e-02	-2.102427e-01
3.401349776604757e-05	1.745738e-02	-1.877477e-01
3.414603124819043e-05	1.533559e-02	-1.636177e-01
3.422973660533329e-05	1.394880e-02	-1.479786e-01
3.431344196247615e-05	1.253346e-02	-1.321054e-01
3.439714731961901e-05	1.108957e-02	-1.159979e-01
3.448085267676187e-05	9.617114e-03	-9.965612e-02
3.456455803390473e-05	8.116106e-03	-8.308014e-02
3.464826339104759e-05	6.586542e-03	-6.626991e-02
3.473196874819045e-05	5.028422e-03	-4.922545e-02
3.497610937319045e-05	4.503108e-04	2.934792e-04
3.507376562319046e-05	-1.389951e-03	1.997737e-02
3.522024999819046e-05	-4.138376e-03	4.913953e-02
3.536673437319047e-05	-6.851769e-03	7.765319e-02
3.548531696247619e-05	-9.034599e-03	1.003487e-01
3.560389955176190e-05	-1.113938e-02	1.221049e-01
3.572248214104762e-05	-1.316612e-02	1.429218e-01
3.584106473033333e-05	-1.511480e-02	1.627994e-01
3.595964731961906e-05	-1.698544e-02	1.817377e-01
3.607822990890477e-05	-1.877803e-02	1.997367e-01
3.619681249819049e-05	-2.049257e-02	2.167963e-01
3.639910044461907e-05	-2.316812e-02	2.430580e-01
3.660138839104765e-05	-2.540096e-02	2.649147e-01
3.680367633747622e-05	-2.719111e-02	2.823664e-01
3.700596428390480e-05	-2.853854e-02	2.954130e-01
3.720825223033337e-05	-2.944328e-02	3.040547e-01
3.741054017676195e-05	-2.990531e-02	3.082913e-01
3.761282812319053e-05	-2.992465e-02	3.081228e-01
3.779418973033339e-05	-2.944434e-02	3.033978e-01
3.797555133747626e-05	-2.862191e-02	2.952400e-01
3.815691294461912e-05	-2.745734e-02	2.836495e-01
3.833827455176198e-05	-2.595064e-02	2.686262e-01
3.851963615890484e-05	-2.410181e-02	2.501702e-01
3.870099776604771e-05	-2.191084e-02	2.282815e-01
3.888235937319057e-05	-1.937775e-02	2.029600e-01
3.899396651604771e-05	-1.770269e-02	1.860369e-01
3.910557365890486e-05	-1.596294e-02	1.683339e-01
3.921718080176200e-05	-1.415849e-02	1.498511e-01
3.932878794461915e-05	-1.228934e-02	1.305885e-01
3.944039508747630e-05	-1.035549e-02	1.105461e-01
3.955200223033344e-05	-8.356949e-03	8.972386e-02
3.966360937319059e-05	-6.293708e-03	6.812178e-02
3.981009374819059e-05	-3.571160e-03	3.935811e-02
3.995657812319060e-05	-8.183816e-04	1.002584e-02
4.000540624819060e-05	1.019052e-04	1.638640e-04
4.005423437319060e-05	1.024250e-03	-9.749070e-03
4.010306249819060e-05	1.943476e-03	-1.965560e-02
4.015189062319060e-05	2.859585e-03	-2.955572e-02
4.020071874819060e-05	3.772575e-03	-3.944943e-02
4.024954687319061e-05	4.682447e-03	-4.933674e-02
4.029837499819061e-05	5.589201e-03	-5.921763e-02
4.034720312319061e-05	6.492837e-03	-6.909212e-02
4.044485937319061e-05	8.292512e-03	-8.885765e-02
4.054251562319061e-05	1.004501e-02	-1.081852e-01
4.064017187319062e-05	1.175033e-02	-1.270749e-01
4.073782812319062e-05	1.340848e-02	-1.455266e-01
4.083548437319062e-05	1.501945e-02	-1.635403e-01
4.093314062319063e-05	1.658325e-02	-1.811161e-01
4.103079687319063e-05	1.809987e-02	-1.982539e-01
4.117728124819063e-05	2.025695e-02	-2.228078e-01
4.132376562319064e-05	2.220650e-02	-2.450305e-01
4.147024999819064e-05	2.394851e-02	-2.649219e-01
4.161673437319065e-05	2.548297e-02	-2.824820e-01
4.176321874819065e-05	2.680990e-02	-2.977108e-01
4.190970312319065e-05	2.792929e-02	-3.106084e-01
4.205618749819066e-05	2.884113e-02	-3.211747e-01
4.224452455176209e-05	2.960428e-02	-3.298394e-01
4.243286160533352e-05	2.995792e-02	-3.337192e-01
4.262119865890496e-05	2.990207e-02	-3.328142e-01
4.280953571247640e-05	2.943672e-02	-3.271242e-01
4.299787276604783e-05	2.856187e-02	-3.166494e-01
4.318620981961926e-05	2.727752e-02	-3.013897e-01
4.337454687319070e-05	2.558367e-02	-2.813451e-01
4.350010490890498e-05	2.424332e-02	-2.656045e-01
4.362566294461928e-05	2.277728e-02	-2.485439e-01
4.375122098033356e-05	2.118555e-02	-2.301633e-01
4.387677901604785e-05	1.946812e-02	-2.104626e-01
4.400233705176214e-05	1.762501e-02	-1.894418e-01
4.412789508747643e-05	1.565619e-02	-1.671010e-01
4.425345312319072e-05	1.356169e-02	-1.434402e-01
4.433018303390501e-05	1.224837e-02	-1.287221e-01
4.440691294461930e-05	1.091447e-02	-1.138485e-01
4.448364285533358e-05	9.560007e-03	-9.881949e-02
4.456037276604787e-05	8.184969e-03	-8.363510e-02
4.463710267676216e-05	6.789359e-03	-6.829530e-02
4.471383258747645e-05	5.373175e-03	-5.280008e-02
4.479056249819074e-05	3.936420e-03	-3.714946e-02
4.493704687319074e-05	1.186329e-03	-7.423505e-03
4.498587499819074e-05	2.662465e-04	2.458476e-03
4.508353124819074e-05	-1.573804e-03	2.212622e-02
4.523001562319075e-05	-4.320615e-03	5.125066e-02
4.537649999819075e-05	-7.030851e-03	7.971106e-02
4.549508258747647e-05	-9.209929e-03	1.023513e-01
4.561366517676219e-05	-1.131007e-02	1.240445e-01
4.573224776604791e-05	-1.333126e-02	1.447906e-01
4.585083035533362e-05	-1.527352e-02	1.645897e-01
4.596941294461934e-05	-1.713683e-02	1.834418e-01
4.608799553390506e-05	-1.892120e-02	2.013469e-01
4.620657812319078e-05	-2.062663e-02	2.183049e-01
4.640886606961935e-05	-2.328425e-02	2.443761e-01
4.661115401604793e-05	-2.549812e-02	2.660353e-01
4.681344196247651e-05	-2.726822e-02	2.832825e-01
4.701572990890508e-05	-2.859457e-02	2.961176e-01
4.721801785533366e-05	-2.947715e-02	3.045407e-01
4.742030580176224e-05	-2.991598e-02	3.085517e-01
4.762259374819082e-05	-2.991104e-02	3.081507e-01
4.780395535533368e-05	-2.940934e-02	3.032197e-01
4.798531696247654e-05	-2.856658e-02	2.948638e-01
4.816667856961941e-05	-2.738275e-02	2.830832e-01
4.834804017676227e-05	-2.585787e-02	2.678777e-01
4.852940178390513e-05	-2.399193e-02	2.492475e-01
4.871076339104799e-05	-2.178492e-02	2.271925e-01
4.889212499819085e-05	-1.923686e-02	2.017127e-01
4.908743749819086e-05	-1.627424e-02	1.716556e-01
4.913626562319086e-05	-1.549351e-02	1.636880e-01
4.922694642676229e-05	-1.399255e-02	1.483282e-01
4.931762723033372e-05	-1.245895e-02	1.325449e-01
4.940830803390515e-05	-1.089269e-02	1.163381e-01
4.949898883747659e-05	-9.293770e-03	9.970801e-02
4.958966964104802e-05	-7.662197e-03	8.265446e-02
4.968035044461945e-05	-5.997970e-03	6.517749e-02
4.977103124819088e-05	-4.301087e-03	4.727710e-02
4.991751562319088e-05	-1.554098e-03	1.807458e-02
4.996634374819088e-05	-6.343581e-04	8.243813e-03
5.000000000000000e-05	-1.433208e-16	1.449855e-03
