time	V(g1)	V(n002)
0.000000000000000e+00	0.000000e+00	3.163680e-14
4.882812361904632e-13	4.601942e-08	1.178850e-07
9.765624723809263e-13	9.203885e-08	1.584565e-07
9.765624723809266e-12	9.203885e-07	6.813311e-08
1.855468697523761e-11	1.748738e-06	-4.826946e-08
2.734374922666595e-11	2.577088e-06	-1.907512e-07
3.613281147809429e-11	3.405437e-06	-3.593120e-07
4.492187372952262e-11	4.233787e-06	-5.539521e-07
5.371093598095097e-11	5.062137e-06	-7.746712e-07
6.249999823237928e-11	5.890486e-06	-1.021470e-06
2.499999929295171e-10	2.356194e-05	-1.769187e-05
4.999999858590343e-10	4.712389e-05	-6.782149e-05
9.999999717180685e-10	9.424777e-05	-2.446275e-04
1.999999943436137e-09	1.884955e-04	-8.084015e-04
3.999999886872274e-09	3.769907e-04	-2.376544e-03
7.999999773744548e-09	7.539790e-04	-6.137040e-03
1.599999954748910e-08	1.507939e-03	-1.417701e-02
3.199999909497819e-08	3.015726e-03	-3.049836e-02
6.399999818995639e-08	6.030232e-03	-6.338312e-02
1.616562481899564e-07	1.520956e-02	-1.652781e-01
3.081406231899564e-07	2.886047e-02	-3.221240e-01
3.918459803328136e-07	3.660970e-02	-4.143399e-01
4.755513374756708e-07	4.420641e-02	-5.064496e-01
5.592566946185280e-07	5.165060e-02	-5.984532e-01
6.429620517613852e-07	5.894228e-02	-6.903506e-01
7.266674089042424e-07	6.608144e-02	-7.821417e-01
8.103727660470997e-07	7.306809e-02	-8.738268e-01
8.940781231899567e-07	7.990222e-02	-9.654056e-01
1.005685266047099e-06	8.869267e-02	-1.086201e+00
1.117292408904242e-06	9.695334e-02	-1.201064e+00
1.228899551761385e-06	1.046842e-01	-1.309995e+00
1.340506694618528e-06	1.118854e-01	-1.412994e+00
1.452113837475670e-06	1.185567e-01	-1.510061e+00
1.563720980332813e-06	1.246983e-01	-1.601195e+00
1.675328123189956e-06	1.303100e-01	-1.686397e+00
1.772984373189956e-06	1.346485e-01	-1.752529e+00
1.870640623189956e-06	1.384504e-01	-1.810476e+00
1.968296873189956e-06	1.417157e-01	-1.860238e+00
2.065953123189956e-06	1.444444e-01	-1.901814e+00
2.163609373189956e-06	1.466366e-01	-1.935205e+00
2.261265623189957e-06	1.482921e-01	-1.960411e+00
2.358921873189956e-06	1.494111e-01	-1.977431e+00
2.442627230332814e-06	1.498986e-01	-1.984154e+00
2.526332587475671e-06	1.499745e-01	-1.984364e+00
2.610037944618529e-06	1.496387e-01	-1.978062e+00
2.693743301761386e-06	1.488912e-01	-1.965247e+00
2.777448658904243e-06	1.477320e-01	-1.945921e+00
2.861154016047101e-06	1.461611e-01	-1.920081e+00
2.944859373189958e-06	1.441785e-01	-1.887730e+00
3.070417408904244e-06	1.403777e-01	-1.825540e+00
3.195975444618530e-06	1.357895e-01	-1.752926e+00
3.321533480332816e-06	1.304139e-01	-1.669890e+00
3.447091516047102e-06	1.242510e-01	-1.576432e+00
3.572649551761388e-06	1.173006e-01	-1.472550e+00
3.698207587475674e-06	1.095630e-01	-1.358246e+00
3.823765623189960e-06	1.010379e-01	-1.233520e+00
3.914446426761388e-06	9.450217e-02	-1.140354e+00
4.005127230332816e-06	8.771720e-02	-1.045787e+00
4.095808033904244e-06	8.068296e-02	-9.498207e-01
4.186488837475672e-06	7.339947e-02	-8.524535e-01
4.277169641047100e-06	6.586672e-02	-7.536858e-01
4.367850444618528e-06	5.808471e-02	-6.535176e-01
4.458531248189956e-06	5.005344e-02	-5.519490e-01
4.521310266047098e-06	4.441587e-02	-4.823239e-01
4.584089283904241e-06	3.873153e-02	-4.133470e-01
4.646868301761383e-06	3.300041e-02	-3.450183e-01
4.709647319618526e-06	2.722251e-02	-2.773378e-01
4.772426337475669e-06	2.139784e-02	-2.103054e-01
4.835205355332811e-06	1.552639e-02	-1.439212e-01
4.897984373189953e-06	9.608163e-03	-7.818514e-02
4.946812498189953e-06	5.011871e-03	-2.805087e-02
4.995640623189953e-06	4.108611e-04	2.138009e-02
5.044468748189953e-06	-4.190535e-03	7.006057e-02
5.093296873189952e-06	-8.787988e-03	1.179462e-01
5.142124998189952e-06	-1.337717e-02	1.649953e-01
5.239781248189951e-06	-2.251345e-02	2.564325e-01
5.337437498189951e-06	-3.156501e-02	3.440973e-01
5.435093748189950e-06	-4.049775e-02	4.277607e-01
5.581578123189949e-06	-5.360072e-02	5.453637e-01
5.728062498189948e-06	-6.624995e-02	6.531253e-01
5.874546873189947e-06	-7.833837e-02	7.508172e-01
6.021031248189947e-06	-8.976363e-02	8.383976e-01
6.167515623189946e-06	-1.004290e-01	9.159853e-01
6.313999998189945e-06	-1.102443e-01	9.838293e-01
6.460484373189944e-06	-1.191263e-01	1.042277e+00
6.606968748189943e-06	-1.269999e-01	1.091739e+00
6.753453123189942e-06	-1.337984e-01	1.132658e+00
6.899937498189941e-06	-1.394643e-01	1.165471e+00
7.046421873189940e-06	-1.439496e-01	1.190585e+00
7.192906248189940e-06	-1.472163e-01	1.208346e+00
7.339390623189939e-06	-1.492369e-01	1.219020e+00
7.485874998189938e-06	-1.499941e-01	1.222775e+00
7.632359373189938e-06	-1.494816e-01	1.219670e+00
7.778843748189937e-06	-1.477037e-01	1.209655e+00
7.925328123189936e-06	-1.446754e-01	1.192570e+00
8.071812498189935e-06	-1.404225e-01	1.168156e+00
8.218296873189934e-06	-1.349809e-01	1.136072e+00
8.364781248189933e-06	-1.283966e-01	1.095914e+00
8.511265623189932e-06	-1.207254e-01	1.047242e+00
8.657749998189931e-06	-1.120323e-01	9.896139e-01
8.804234373189931e-06	-1.023908e-01	9.226109e-01
8.950718748189930e-06	-9.188253e-02	8.458782e-01
9.097203123189929e-06	-8.059646e-02	7.591563e-01
9.243687498189928e-06	-6.862813e-02	6.623147e-01
9.390171873189927e-06	-5.607886e-02	5.553821e-01
9.536656248189926e-06	-4.305486e-02	4.385740e-01
9.634312498189926e-06	-3.416278e-02	3.554153e-01
9.731968748189925e-06	-2.514211e-02	2.682309e-01
9.829624998189924e-06	-1.602681e-02	1.772464e-01
9.878453123189924e-06	-1.144439e-02	1.304124e-01
9.927281248189924e-06	-6.851197e-03	8.273397e-02
9.976109373189924e-06	-2.251554e-03	3.425243e-02
1.002493749818992e-05	2.350208e-03	-1.498812e-02
1.007376562318992e-05	6.949757e-03	-6.494074e-02
1.012259374818992e-05	1.154277e-02	-1.155557e-01
1.022024999818992e-05	2.069188e-02	-2.185602e-01
1.029697990890421e-05	2.786780e-02	-3.015826e-01
1.037370981961849e-05	3.493860e-02	-3.849335e-01
1.045043973033278e-05	4.190428e-02	-4.686129e-01
1.052716964104706e-05	4.876485e-02	-5.526208e-01
1.060389955176135e-05	5.552030e-02	-6.369572e-01
1.068062946247563e-05	6.217063e-02	-7.216220e-01
1.075735937318992e-05	6.871585e-02	-8.066154e-01
1.086199106961849e-05	7.740958e-02	-9.223732e-01
1.096662276604706e-05	8.568484e-02	-1.034108e+00
1.107125446247563e-05	9.354162e-02	-1.141819e+00
1.117588615890420e-05	1.009799e-01	-1.245508e+00
1.128051785533277e-05	1.079997e-01	-1.345173e+00
1.138514955176134e-05	1.146011e-01	-1.440815e+00
1.148978124818991e-05	1.207840e-01	-1.532434e+00
1.159441294461848e-05	1.264109e-01	-1.616749e+00
1.169904464104706e-05	1.314450e-01	-1.692365e+00
1.180367633747563e-05	1.358860e-01	-1.759281e+00
1.190830803390420e-05	1.397342e-01	-1.817498e+00
1.201293973033277e-05	1.429893e-01	-1.867014e+00
1.211757142676134e-05	1.456516e-01	-1.907832e+00
1.222220312318991e-05	1.477208e-01	-1.939949e+00
1.230590848033277e-05	1.488867e-01	-1.957510e+00
1.238961383747562e-05	1.496391e-01	-1.968501e+00
1.247331919461848e-05	1.499779e-01	-1.972922e+00
1.255702455176134e-05	1.499031e-01	-1.970774e+00
1.264072990890419e-05	1.494147e-01	-1.962055e+00
1.272443526604705e-05	1.485129e-01	-1.946767e+00
1.280814062318991e-05	1.471974e-01	-1.924908e+00
1.291974776604705e-05	1.447624e-01	-1.884470e+00
1.303135490890419e-05	1.416636e-01	-1.834601e+00
1.314296205176133e-05	1.379009e-01	-1.775302e+00
1.325456919461847e-05	1.334744e-01	-1.706573e+00
1.336617633747562e-05	1.283840e-01	-1.628414e+00
1.347778348033276e-05	1.226298e-01	-1.540825e+00
1.358939062318990e-05	1.162118e-01	-1.443806e+00
1.368704687318990e-05	1.101113e-01	-1.353253e+00
1.378470312318990e-05	1.036609e-01	-1.259714e+00
1.388235937318990e-05	9.686070e-02	-1.163188e+00
1.398001562318990e-05	8.971064e-02	-1.063676e+00
1.407767187318990e-05	8.221075e-02	-9.611766e-01
1.417532812318990e-05	7.436100e-02	-8.556907e-01
1.427298437318990e-05	6.616142e-02	-7.472182e-01
1.434273883747561e-05	6.016973e-02	-6.698665e-01
1.441249330176133e-05	5.409216e-02	-5.928706e-01
1.448224776604704e-05	4.792869e-02	-5.162305e-01
1.455200223033275e-05	4.167933e-02	-4.399462e-01
1.462175669461847e-05	3.534408e-02	-3.640177e-01
1.469151115890418e-05	2.892294e-02	-2.884449e-01
1.476126562318989e-05	2.241590e-02	-2.132279e-01
1.485892187318989e-05	1.327890e-02	-1.103691e-01
1.490774999818989e-05	8.689490e-03	-5.982982e-02
1.495657812318989e-05	4.091908e-03	-9.954255e-03
1.500540624818989e-05	-5.095259e-04	3.920836e-02
1.505423437318989e-05	-5.110480e-03	8.761150e-02
1.510306249818989e-05	-9.706625e-03	1.352115e-01
1.520071874818989e-05	-1.886719e-02	2.278413e-01
1.529837499818989e-05	-2.795674e-02	3.168054e-01
1.539603124818989e-05	-3.694107e-02	4.018573e-01
1.554251562318990e-05	-5.014645e-02	5.216730e-01
1.568899999818990e-05	-6.292732e-02	6.317542e-01
1.583548437318991e-05	-7.517550e-02	7.318220e-01
1.598196874818991e-05	-8.678731e-02	8.217897e-01
1.612845312318992e-05	-9.766445e-02	9.017387e-01
1.627493749818992e-05	-1.077148e-01	9.718885e-01
1.642142187318992e-05	-1.168534e-01	1.032566e+00
1.656790624818993e-05	-1.250028e-01	1.084170e+00
1.671439062318993e-05	-1.320940e-01	1.127139e+00
1.686087499818994e-05	-1.380670e-01	1.161917e+00
1.700735937318994e-05	-1.428713e-01	1.188922e+00
1.715384374818994e-05	-1.464661e-01	1.208521e+00
1.730032812318995e-05	-1.488211e-01	1.221004e+00
1.744681249818995e-05	-1.499162e-01	1.226564e+00
1.759329687318996e-05	-1.497423e-01	1.225293e+00
1.773978124818996e-05	-1.483009e-01	1.217169e+00
1.788626562318997e-05	-1.456040e-01	1.202060e+00
1.803274999818997e-05	-1.416745e-01	1.179731e+00
1.817923437318997e-05	-1.365458e-01	1.149860e+00
1.832571874818998e-05	-1.302612e-01	1.112058e+00
1.847220312318998e-05	-1.228738e-01	1.065889e+00
1.861868749818999e-05	-1.144464e-01	1.010906e+00
1.876517187318999e-05	-1.050501e-01	9.466805e-01
1.891165624818999e-05	-9.476458e-02	8.728341e-01
1.905814062319000e-05	-8.367684e-02	7.890763e-01
1.920462499819000e-05	-7.188077e-02	6.952366e-01
1.935110937319001e-05	-5.947621e-02	5.912962e-01
1.949759374819001e-05	-4.656818e-02	4.774153e-01
1.959524999819001e-05	-3.773693e-02	3.961426e-01
1.969290624819002e-05	-2.876364e-02	3.107700e-01
1.979056249819002e-05	-1.968210e-02	2.215040e-01
1.988821874819002e-05	-1.052648e-02	1.285970e-01
1.993704687319002e-05	-5.931645e-03	8.086975e-02
1.998587499819003e-05	-1.331233e-03	3.234804e-02
2.003470312319003e-05	3.270433e-03	-1.692360e-02
2.008353124819003e-05	7.869021e-03	-6.689779e-02
2.013235937319003e-05	1.246020e-02	-1.175243e-01
2.023001562319003e-05	2.160307e-02	-2.205204e-01
2.030674553390432e-05	2.877160e-02	-3.035076e-01
2.038347544461861e-05	3.583299e-02	-3.867913e-01
2.046020535533290e-05	4.278722e-02	-4.703716e-01
2.053693526604718e-05	4.963431e-02	-5.542485e-01
2.061366517676147e-05	5.637425e-02	-6.384219e-01
2.069039508747576e-05	6.300704e-02	-7.228919e-01
2.076712499819005e-05	6.953268e-02	-8.076585e-01
2.087175669461862e-05	7.819638e-02	-9.230445e-01
2.097638839104720e-05	8.643860e-02	-1.034346e+00
2.108102008747577e-05	9.425933e-02	-1.141562e+00
2.118565178390435e-05	1.016586e-01	-1.244694e+00
2.129028348033292e-05	1.086364e-01	-1.343741e+00
2.139491517676149e-05	1.151926e-01	-1.438703e+00
2.149954687319007e-05	1.213274e-01	-1.529580e+00
2.160417856961864e-05	1.269039e-01	-1.613093e+00
2.170881026604722e-05	1.318858e-01	-1.687876e+00
2.181344196247579e-05	1.362732e-01	-1.753928e+00
2.191807365890437e-05	1.400661e-01	-1.811252e+00
2.202270535533294e-05	1.432645e-01	-1.859845e+00
2.212733705176151e-05	1.458685e-01	-1.899709e+00
2.223196874819009e-05	1.478779e-01	-1.930842e+00
2.231567410533295e-05	1.489956e-01	-1.947616e+00
2.239937946247581e-05	1.496997e-01	-1.957833e+00
2.248308481961867e-05	1.499903e-01	-1.961491e+00
2.256679017676153e-05	1.498674e-01	-1.958592e+00
2.265049553390439e-05	1.493310e-01	-1.949135e+00
2.273420089104725e-05	1.483810e-01	-1.933120e+00
2.281790624819011e-05	1.470175e-01	-1.910547e+00
2.292951339104725e-05	1.445190e-01	-1.869193e+00
2.304112053390440e-05	1.413586e-01	-1.818484e+00
2.315272767676154e-05	1.375362e-01	-1.758417e+00
2.326433481961869e-05	1.330520e-01	-1.688995e+00
2.337594196247584e-05	1.279058e-01	-1.610216e+00
2.348754910533298e-05	1.220977e-01	-1.522080e+00
2.359915624819013e-05	1.156277e-01	-1.424588e+00
2.369681249819013e-05	1.094843e-01	-1.333710e+00
2.379446874819013e-05	1.029938e-01	-1.239918e+00
2.389212499819014e-05	9.615613e-02	-1.143210e+00
2.398978124819014e-05	8.897134e-02	-1.043588e+00
2.408743749819014e-05	8.143942e-02	-9.410513e-01
2.418509374819015e-05	7.356035e-02	-8.355997e-01
2.428274999819015e-05	6.533416e-02	-7.272335e-01
2.435250446247586e-05	5.932553e-02	-6.500012e-01
2.442225892676158e-05	5.323270e-02	-5.731547e-01
2.449201339104730e-05	4.705566e-02	-4.966940e-01
2.456176785533302e-05	4.079441e-02	-4.206191e-01
2.463152231961873e-05	3.444896e-02	-3.449300e-01
2.470127678390445e-05	2.801930e-02	-2.696267e-01
2.477103124819016e-05	2.150543e-02	-1.947091e-01
2.486868749819017e-05	1.236188e-02	-9.230520e-02
2.491751562319017e-05	7.770490e-03	-4.200993e-02
2.496634374819017e-05	3.171791e-03	7.611522e-03
2.501517187319017e-05	-1.429894e-03	5.651053e-02
2.506399999819017e-05	-6.030232e-03	1.046412e-01
2.511282812319017e-05	-1.062489e-02	1.519606e-01
2.521048437319018e-05	-1.977991e-02	2.440075e-01
2.530814062319018e-05	-2.886047e-02	3.323641e-01
2.540579687319018e-05	-3.783241e-02	4.167896e-01
2.555228124819019e-05	-5.101293e-02	5.356414e-01
2.569876562319019e-05	-6.376161e-02	6.447452e-01
2.584524999819019e-05	-7.597054e-02	7.438380e-01
2.599173437319020e-05	-8.753636e-02	8.328476e-01
2.613821874819020e-05	-9.836118e-02	9.118678e-01
2.628470312319021e-05	-1.083533e-01	9.811286e-01
2.643118749819021e-05	-1.174283e-01	1.040964e+00
2.657767187319021e-05	-1.255092e-01	1.091780e+00
2.672415624819022e-05	-1.325276e-01	1.134017e+00
2.687064062319022e-05	-1.384242e-01	1.168119e+00
2.701712499819023e-05	-1.431490e-01	1.194504e+00
2.716360937319023e-05	-1.466620e-01	1.213535e+00
2.731009374819024e-05	-1.489334e-01	1.225495e+00
2.745657812319024e-05	-1.499442e-01	1.230573e+00
2.760306249819024e-05	-1.496856e-01	1.228853e+00
2.774954687319025e-05	-1.481599e-01	1.220305e+00
2.789603124819025e-05	-1.453800e-01	1.204790e+00
2.804251562319026e-05	-1.413695e-01	1.182067e+00
2.818899999819026e-05	-1.361622e-01	1.151806e+00
2.833548437319026e-05	-1.298023e-01	1.113613e+00
2.848196874819027e-05	-1.223436e-01	1.067051e+00
2.862845312319027e-05	-1.138493e-01	1.011670e+00
2.877493749819028e-05	-1.043912e-01	9.470417e-01
2.892142187319028e-05	-9.404935e-02	8.727914e-01
2.906790624819029e-05	-8.291140e-02	7.886330e-01
2.921439062319029e-05	-7.107159e-02	6.944029e-01
2.936087499819029e-05	-5.863015e-02	5.900907e-01
2.950735937319030e-05	-4.569240e-02	4.758671e-01
2.960501562319030e-05	-3.684544e-02	3.943875e-01
2.970267187319030e-05	-2.785980e-02	3.088297e-01
2.980032812319031e-05	-1.876930e-02	2.194038e-01
2.989798437319031e-05	-9.608163e-03	1.263660e-01
2.994681249819031e-05	-5.011871e-03	7.858550e-02
2.999564062319031e-05	-4.108611e-04	3.001920e-02
3.004446874819031e-05	4.190535e-03	-1.928787e-02
3.009329687319032e-05	8.787988e-03	-6.928787e-02
3.014212499819032e-05	1.337717e-02	-1.199302e-01
3.023978124819032e-05	2.251345e-02	-2.229259e-01
3.031651115890461e-05	2.967433e-02	-3.058840e-01
3.039324106961890e-05	3.672603e-02	-3.891064e-01
3.046997098033318e-05	4.366855e-02	-4.725933e-01
3.054670089104747e-05	5.050190e-02	-5.563445e-01
3.062343080176176e-05	5.722608e-02	-6.403602e-01
3.070016071247605e-05	6.384108e-02	-7.246402e-01
3.077689062319033e-05	7.034690e-02	-8.091847e-01
3.088152231961891e-05	7.898023e-02	-9.242047e-01
3.098615401604749e-05	8.718910e-02	-1.035078e+00
3.109078571247606e-05	9.497349e-02	-1.141805e+00
3.119541740890463e-05	1.023334e-01	-1.244385e+00
3.130004910533320e-05	1.092689e-01	-1.342818e+00
3.140468080176178e-05	1.157798e-01	-1.437105e+00
3.150931249819036e-05	1.218664e-01	-1.527245e+00
3.161394419461893e-05	1.273920e-01	-1.609958e+00
3.171857589104751e-05	1.323216e-01	-1.683910e+00
3.182320758747608e-05	1.366552e-01	-1.749103e+00
3.192783928390465e-05	1.403928e-01	-1.805536e+00
3.203247098033323e-05	1.435343e-01	-1.853209e+00
3.213710267676180e-05	1.460799e-01	-1.892122e+00
3.224173437319038e-05	1.480294e-01	-1.922275e+00
3.232543973033323e-05	1.490988e-01	-1.938264e+00
3.240914508747610e-05	1.497547e-01	-1.947708e+00
3.249285044461896e-05	1.499972e-01	-1.950605e+00
3.257655580176181e-05	1.498261e-01	-1.946957e+00
3.266026115890467e-05	1.492416e-01	-1.936763e+00
3.274396651604754e-05	1.482436e-01	-1.920023e+00
3.282767187319039e-05	1.468322e-01	-1.896737e+00
3.293927901604754e-05	1.442702e-01	-1.854472e+00
3.305088615890468e-05	1.410483e-01	-1.802923e+00
3.316249330176183e-05	1.371664e-01	-1.742091e+00
3.327410044461898e-05	1.326245e-01	-1.671975e+00
3.338570758747613e-05	1.274227e-01	-1.592577e+00
3.349731473033327e-05	1.215609e-01	-1.503895e+00
3.360892187319042e-05	1.150392e-01	-1.405930e+00
3.370657812319042e-05	1.088532e-01	-1.314727e+00
3.380423437319042e-05	1.023228e-01	-1.220679e+00
3.390189062319042e-05	9.544794e-02	-1.123789e+00
3.399954687319043e-05	8.822869e-02	-1.024055e+00
3.409720312319043e-05	8.066502e-02	-9.214783e-01
3.419485937319043e-05	7.275694e-02	-8.160578e-01
3.429251562319044e-05	6.450444e-02	-7.077941e-01
3.436227008747615e-05	5.847910e-02	-6.306781e-01
3.443202455176187e-05	5.237124e-02	-5.539775e-01
3.450177901604759e-05	4.618086e-02	-4.776924e-01
3.457153348033330e-05	3.990796e-02	-4.018228e-01
3.464128794461902e-05	3.355254e-02	-3.263686e-01
3.471104240890473e-05	2.711461e-02	-2.513300e-01
3.478079687319045e-05	2.059415e-02	-1.767067e-01
3.482962499819045e-05	1.602681e-02	-1.254385e-01
3.487845312319045e-05	1.144439e-02	-7.475001e-02
3.492728124819045e-05	6.851197e-03	-2.469461e-02
3.497610937319045e-05	2.251554e-03	2.467699e-02
3.502493749819046e-05	-2.350208e-03	7.331681e-02
3.507376562319046e-05	-6.949757e-03	1.211796e-01
3.512259374819046e-05	-1.154277e-02	1.682231e-01
3.522024999819046e-05	-2.069188e-02	2.596969e-01
3.531790624819046e-05	-2.976312e-02	3.474564e-01
3.541556249819047e-05	-3.872233e-02	4.312661e-01
3.556204687319047e-05	-5.187749e-02	5.491710e-01
3.570853124819048e-05	-6.459350e-02	6.573148e-01
3.585501562319048e-05	-7.676271e-02	7.554504e-01
3.600149999819048e-05	-8.828212e-02	8.435200e-01
3.614798437319049e-05	-9.905420e-02	9.216295e-01
3.629446874819049e-05	-1.089878e-01	9.900188e-01
3.644095312319050e-05	-1.179987e-01	1.049030e+00
3.658743749819050e-05	-1.260108e-01	1.099073e+00
3.673392187319051e-05	-1.329562e-01	1.140593e+00
3.688040624819051e-05	-1.387761e-01	1.174033e+00
3.702689062319051e-05	-1.434212e-01	1.199810e+00
3.717337499819052e-05	-1.468523e-01	1.218281e+00
3.731985937319052e-05	-1.490402e-01	1.229726e+00
3.746634374819053e-05	-1.499665e-01	1.234329e+00
3.761282812319053e-05	-1.496232e-01	1.232163e+00
3.775931249819053e-05	-1.480134e-01	1.223193e+00
3.790579687319054e-05	-1.451506e-01	1.207271e+00
3.805228124819054e-05	-1.410591e-01	1.184150e+00
3.819876562319055e-05	-1.357736e-01	1.153495e+00
3.834524999819055e-05	-1.293386e-01	1.114905e+00
3.849173437319056e-05	-1.218088e-01	1.067941e+00
3.863821874819056e-05	-1.132479e-01	1.012152e+00
3.878470312319056e-05	-1.037283e-01	9.471102e-01
3.893118749819057e-05	-9.333058e-02	8.724438e-01
3.907767187319057e-05	-8.214284e-02	7.878720e-01
3.922415624819058e-05	-7.025974e-02	6.932381e-01
3.937064062319058e-05	-5.778189e-02	5.885406e-01
3.951712499819059e-05	-4.481490e-02	4.739605e-01
3.961478124819059e-05	-3.595256e-02	3.922652e-01
3.971243749819059e-05	-2.695491e-02	3.065132e-01
3.981009374819059e-05	-1.785580e-02	2.169187e-01
3.990774999819060e-05	-8.689490e-03	1.237417e-01
3.995657812319060e-05	-4.091908e-03	7.590377e-02
4.000540624819060e-05	5.095259e-04	2.728883e-02
4.005423437319060e-05	5.110480e-03	-2.205765e-02
4.010306249819060e-05	9.706625e-03	-7.208736e-02
4.020071874819060e-05	1.886719e-02	-1.739896e-01
4.034720312319061e-05	3.246418e-02	-3.306053e-01
4.043090848033347e-05	4.016838e-02	-4.225089e-01
4.051461383747633e-05	4.771068e-02	-5.141475e-01
