time	V(g1)	V(n002)
0.000000000000000e+00	0.000000e+00	3.163680e-14
4.882812361904632e-13	3.067961e-09	1.167760e-07
9.765624723809263e-13	6.135923e-09	1.563316e-07
9.765624723809266e-12	6.135923e-08	7.160398e-08
1.855468697523761e-11	1.165825e-07	4.997736e-09
2.734374922666595e-11	1.718058e-07	-4.348712e-08
3.613281147809429e-11	2.270292e-07	-7.385058e-08
4.492187372952262e-11	2.822525e-07	-8.609265e-08
5.371093598095097e-11	3.374758e-07	-8.021333e-08
6.249999823237928e-11	3.926991e-07	-5.621263e-08
4.999999858590343e-10	3.141593e-06	-4.514935e-06
9.999999717180685e-10	6.283185e-06	-1.630003e-05
1.999999943436137e-09	1.256637e-05	-5.387172e-05
3.999999886872274e-09	2.513271e-05	-1.583319e-04
7.999999773744548e-09	5.026527e-05	-4.085952e-04
1.599999954748910e-08	1.005293e-04	-9.425680e-04
7.168526721069874e-08	4.513138e-04	-4.710080e-03
1.273705348739084e-07	8.004860e-04	-8.463572e-03
1.830558025371180e-07	1.148046e-03	-1.220304e-02
2.387410702003277e-07	1.493993e-03	-1.592850e-02
2.944263378635373e-07	1.838328e-03	-1.963993e-02
3.501116055267469e-07	2.181051e-03	-2.333734e-02
4.057968731899564e-07	2.522161e-03	-2.702073e-02
5.104285696185279e-07	3.158777e-03	-3.390667e-02
6.150602660470994e-07	3.775343e-03	-4.058321e-02
7.196919624756708e-07	4.371859e-03	-4.705035e-02
8.243236589042423e-07	4.948323e-03	-5.330809e-02
9.289553553328137e-07	5.504737e-03	-5.935644e-02
1.033587051761385e-06	6.041100e-03	-6.519539e-02
1.138218748189956e-06	6.557412e-03	-7.082495e-02
1.312604908904242e-06	7.359897e-03	-7.959385e-02
1.486991069618528e-06	8.056950e-03	-8.720413e-02
1.661377230332814e-06	8.648571e-03	-9.365576e-02
1.835763391047099e-06	9.134760e-03	-9.894877e-02
2.010149551761386e-06	9.515518e-03	-1.030831e-01
2.184535712475671e-06	9.790844e-03	-1.060589e-01
2.358921873189956e-06	9.960739e-03	-1.078760e-01
2.547258926761386e-06	9.984585e-03	-1.080453e-01
2.735595980332815e-06	9.877907e-03	-1.067809e-01
2.923933033904244e-06	9.640706e-03	-1.040828e-01
3.112270087475673e-06	9.272980e-03	-9.995100e-02
3.300607141047102e-06	8.774729e-03	-9.438550e-02
3.488944194618531e-06	8.145955e-03	-8.738631e-02
3.677281248189960e-06	7.386657e-03	-7.895341e-02
3.788888391047102e-06	6.889196e-03	-7.345396e-02
3.900495533904245e-06	6.364710e-03	-6.767408e-02
4.012102676761387e-06	5.813198e-03	-6.161378e-02
4.123709819618529e-06	5.234660e-03	-5.527306e-02
4.235316962475672e-06	4.629098e-03	-4.865191e-02
4.346924105332814e-06	3.996510e-03	-4.175034e-02
4.458531248189956e-06	3.336896e-03	-3.456834e-02
4.521310266047098e-06	2.961058e-03	-3.048682e-02
4.584089283904241e-06	2.582102e-03	-2.637789e-02
4.646868301761383e-06	2.200027e-03	-2.224154e-02
4.709647319618526e-06	1.814834e-03	-1.807777e-02
4.772426337475669e-06	1.426522e-03	-1.388659e-02
4.835205355332811e-06	1.035092e-03	-9.667992e-03
4.897984373189953e-06	6.405442e-04	-5.421977e-03
5.044468748189953e-06	-2.793690e-04	4.451773e-03
5.114223212475667e-06	-7.191437e-04	9.159082e-03
5.183977676761380e-06	-1.155462e-03	1.382183e-02
5.253732141047094e-06	-1.588323e-03	1.844002e-02
5.323486605332808e-06	-2.017729e-03	2.301365e-02
5.393241069618522e-06	-2.443677e-03	2.754273e-02
5.462995533904235e-06	-2.866169e-03	3.202724e-02
5.532749998189950e-06	-3.285205e-03	3.646720e-02
5.658308033904234e-06	-4.029578e-03	4.432997e-02
5.783866069618520e-06	-4.738513e-03	5.180223e-02
5.909424105332805e-06	-5.412009e-03	5.888396e-02
6.034982141047089e-06	-6.050067e-03	6.557517e-02
6.160540176761375e-06	-6.652686e-03	7.187587e-02
6.286098212475660e-06	-7.219867e-03	7.778605e-02
6.411656248189944e-06	-7.751609e-03	8.330570e-02
6.725551337475657e-06	-8.854680e-03	9.468534e-02
7.039446426761369e-06	-9.586140e-03	1.021919e-01
7.353341516047082e-06	-9.945989e-03	1.058255e-01
7.667236605332796e-06	-9.934228e-03	1.055859e-01
7.981131694618508e-06	-9.550856e-03	1.014734e-01
8.295026783904221e-06	-8.795873e-03	9.348774e-02
8.608921873189932e-06	-7.669279e-03	8.162907e-02
8.734479908904217e-06	-7.129842e-03	7.594883e-02
8.860037944618501e-06	-6.555623e-03	6.989072e-02
8.985595980332786e-06	-5.946624e-03	6.345471e-02
9.111154016047072e-06	-5.302843e-03	5.664083e-02
9.236712051761357e-06	-4.624281e-03	4.944907e-02
9.362270087475642e-06	-3.910938e-03	4.187942e-02
9.487828123189926e-06	-3.162814e-03	3.393188e-02
9.550607141047070e-06	-2.784746e-03	2.990690e-02
9.613386158904211e-06	-2.403841e-03	2.584737e-02
9.676165176761354e-06	-2.020097e-03	2.175330e-02
9.738944194618496e-06	-1.633516e-03	1.762468e-02
9.801723212475639e-06	-1.244098e-03	1.346152e-02
9.864502230332781e-06	-8.518409e-04	9.263822e-03
9.927281248189924e-06	-4.567464e-04	5.031579e-03
1.022024999818992e-05	1.379459e-03	-1.469768e-02
1.031093080176135e-05	1.945621e-03	-2.080175e-02
1.040161160533278e-05	2.501065e-03	-2.679749e-02
1.049229240890421e-05	3.045791e-03	-3.268489e-02
1.058297321247563e-05	3.579799e-03	-3.846396e-02
1.067365401604706e-05	4.103089e-03	-4.413470e-02
1.076433481961849e-05	4.615661e-03	-4.969710e-02
1.085501562318992e-05	5.117514e-03	-5.515117e-02
1.100149999818992e-05	5.898710e-03	-6.366100e-02
1.114798437318992e-05	6.616375e-03	-7.148094e-02
1.129446874818992e-05	7.270510e-03	-7.861099e-02
1.144095312318991e-05	7.861114e-03	-8.505115e-02
1.158743749818991e-05	8.388187e-03	-9.080142e-02
1.173392187318991e-05	8.851729e-03	-9.586180e-02
1.188040624818991e-05	9.251741e-03	-1.002323e-01
1.211757142676134e-05	9.707432e-03	-1.051651e-01
1.235473660533277e-05	9.948655e-03	-1.077313e-01
1.259190178390419e-05	9.975410e-03	-1.079307e-01
1.282906696247562e-05	9.787698e-03	-1.057635e-01
1.306623214104705e-05	9.385518e-03	-1.012295e-01
1.330339731961848e-05	8.768870e-03	-9.432888e-02
1.354056249818990e-05	7.937755e-03	-8.506154e-02
1.365914508747562e-05	7.455048e-03	-7.970831e-02
1.377772767676133e-05	6.938689e-03	-7.400208e-02
1.389631026604704e-05	6.388679e-03	-6.794287e-02
1.401489285533276e-05	5.805018e-03	-6.153068e-02
1.413347544461847e-05	5.187705e-03	-5.476549e-02
1.425205803390418e-05	4.536741e-03	-4.764732e-02
1.437064062318990e-05	3.852126e-03	-4.017617e-02
1.444039508747561e-05	3.442069e-03	-3.571400e-02
1.451014955176133e-05	3.027418e-03	-3.120977e-02
1.457990401604704e-05	2.608174e-03	-2.666346e-02
1.464965848033275e-05	2.184336e-03	-2.207507e-02
1.471941294461847e-05	1.755904e-03	-1.744462e-02
1.478916740890418e-05	1.322879e-03	-1.277209e-02
1.485892187318989e-05	8.852597e-04	-8.057486e-03
1.490077455176132e-05	6.225937e-04	-5.231902e-03
1.494262723033275e-05	3.599513e-04	-2.409452e-03
1.498447990890418e-05	9.733230e-05	4.098625e-04
1.502633258747561e-05	-1.652632e-04	3.226042e-03
1.506818526604704e-05	-4.278352e-04	6.039086e-03
1.511003794461846e-05	-6.903838e-04	8.848995e-03
1.515189062318989e-05	-9.529089e-04	1.165577e-02
1.524257142676132e-05	-1.522673e-03	1.773597e-02
1.533325223033275e-05	-2.083039e-03	2.370405e-02
1.542393303390418e-05	-2.634007e-03	2.955999e-02
1.551461383747561e-05	-3.175577e-03	3.530380e-02
1.560529464104704e-05	-3.707748e-03	4.093547e-02
1.569597544461848e-05	-4.230522e-03	4.645502e-02
1.578665624818991e-05	-4.743898e-03	5.186243e-02
1.593314062318991e-05	-5.546737e-03	6.028627e-02
1.607962499818991e-05	-6.288455e-03	6.805279e-02
1.622610937318992e-05	-6.969053e-03	7.516201e-02
1.637259374818992e-05	-7.588530e-03	8.161390e-02
1.651907812318993e-05	-8.146887e-03	8.740849e-02
1.666556249818993e-05	-8.644124e-03	9.254576e-02
1.681204687318993e-05	-9.080240e-03	9.702571e-02
1.707013839104708e-05	-9.631012e-03	1.026564e-01
1.732822990890424e-05	-9.929123e-03	1.056570e-01
1.758632142676138e-05	-9.974573e-03	1.060276e-01
1.784441294461854e-05	-9.767361e-03	1.037682e-01
1.810250446247569e-05	-9.307489e-03	9.887878e-02
1.836059598033284e-05	-8.594954e-03	9.135933e-02
1.861868749818999e-05	-7.629759e-03	8.120985e-02
1.873727008747570e-05	-7.119147e-03	7.583241e-02
1.885585267676142e-05	-6.577068e-03	7.011344e-02
1.897443526604714e-05	-6.003523e-03	6.405295e-02
1.909301785533286e-05	-5.398511e-03	5.765093e-02
1.921160044461858e-05	-4.762032e-03	5.090739e-02
1.933018303390429e-05	-4.094087e-03	4.382232e-02
1.944876562319001e-05	-3.394675e-03	3.639572e-02
1.951852008747573e-05	-2.977239e-03	3.195416e-02
1.958827455176144e-05	-2.556128e-03	2.746816e-02
1.965802901604716e-05	-2.131341e-03	2.293773e-02
1.972778348033288e-05	-1.702880e-03	1.836286e-02
1.979753794461859e-05	-1.270743e-03	1.374355e-02
1.986729240890431e-05	-8.349304e-04	9.079804e-03
1.993704687319002e-05	-3.954430e-04	4.371623e-03
2.023001562319003e-05	1.440205e-03	-1.535485e-02
2.032069642676146e-05	2.005767e-03	-2.145345e-02
2.041137723033290e-05	2.560425e-03	-2.744162e-02
2.050205803390433e-05	3.104177e-03	-3.331936e-02
2.059273883747576e-05	3.637024e-03	-3.908668e-02
2.068341964104719e-05	4.158965e-03	-4.474358e-02
2.077410044461862e-05	4.670002e-03	-5.029005e-02
2.086478124819005e-05	5.170133e-03	-5.572610e-02
2.101126562319005e-05	5.948119e-03	-6.420190e-02
2.115774999819006e-05	6.662239e-03	-7.198390e-02
2.130423437319006e-05	7.312493e-03	-7.907209e-02
2.145071874819007e-05	7.898882e-03	-8.546648e-02
2.159720312319007e-05	8.421405e-03	-9.116707e-02
2.174368749819008e-05	8.880063e-03	-9.617385e-02
2.189017187319008e-05	9.274855e-03	-1.004868e-01
2.212733705176151e-05	9.721354e-03	-1.053176e-01
2.236450223033295e-05	9.953563e-03	-1.077839e-01
2.260166740890439e-05	9.971485e-03	-1.078857e-01
2.283883258747582e-05	9.775118e-03	-1.056232e-01
2.307599776604726e-05	9.364463e-03	-1.009961e-01
2.331316294461869e-05	8.739519e-03	-9.400463e-02
2.355032812319013e-05	7.900286e-03	-8.464870e-02
2.366891071247584e-05	7.414026e-03	-7.925729e-02
2.378749330176156e-05	6.894383e-03	-7.351601e-02
2.390607589104728e-05	6.341358e-03	-6.742486e-02
2.402465848033300e-05	5.754950e-03	-6.098385e-02
2.414324106961872e-05	5.135159e-03	-5.419298e-02
2.426182365890443e-05	4.481985e-03	-4.705223e-02
2.438040624819015e-05	3.795430e-03	-3.956163e-02
2.445016071247587e-05	3.384396e-03	-3.508987e-02
2.451991517676158e-05	2.968883e-03	-3.057730e-02
2.458966964104730e-05	2.548890e-03	-2.602393e-02
2.465942410533302e-05	2.124418e-03	-2.142974e-02
2.472917856961873e-05	1.695467e-03	-1.679475e-02
2.479893303390445e-05	1.262036e-03	-1.211895e-02
2.486868749819017e-05	8.241250e-04	-7.402339e-03
2.501517187319017e-05	-9.532625e-05	2.473549e-03
2.507795089104731e-05	-4.911036e-04	6.713463e-03
2.514072990890446e-05	-8.845970e-04	1.092268e-02
2.520350892676160e-05	-1.275806e-03	1.510120e-02
2.526628794461875e-05	-1.664732e-03	1.924902e-02
2.532906696247589e-05	-2.051374e-03	2.336614e-02
2.539184598033304e-05	-2.435731e-03	2.745257e-02
2.545462499819018e-05	-2.817805e-03	3.150830e-02
2.557320758747590e-05	-3.533180e-03	3.908062e-02
2.569179017676162e-05	-4.219895e-03	4.633384e-02
2.581037276604733e-05	-4.877949e-03	5.326796e-02
2.592895535533305e-05	-5.507342e-03	5.988298e-02
2.604753794461877e-05	-6.108074e-03	6.617890e-02
2.616612053390449e-05	-6.680146e-03	7.215572e-02
2.628470312319021e-05	-7.223557e-03	7.781344e-02
2.651489285533307e-05	-8.168397e-03	8.759409e-02
2.674508258747593e-05	-8.915836e-03	9.531203e-02
2.697527231961880e-05	-9.465873e-03	1.009673e-01
2.720546205176166e-05	-9.818508e-03	1.045598e-01
2.743565178390453e-05	-9.973741e-03	1.060896e-01
2.766584151604739e-05	-9.931573e-03	1.055567e-01
2.789603124819025e-05	-9.692003e-03	1.029612e-01
2.805646651604740e-05	-9.381560e-03	9.968326e-02
2.821690178390455e-05	-8.988334e-03	9.553272e-02
2.837733705176169e-05	-8.512324e-03	9.050954e-02
2.853777231961884e-05	-7.953532e-03	8.461374e-02
2.869820758747599e-05	-7.311956e-03	7.784530e-02
2.885864285533314e-05	-6.587597e-03	7.020423e-02
2.901907812319028e-05	-5.780455e-03	6.169053e-02
2.911673437319029e-05	-5.263961e-03	5.622846e-02
2.921439062319029e-05	-4.732816e-03	5.060229e-02
2.931204687319029e-05	-4.187020e-03	4.481202e-02
2.940970312319030e-05	-3.626572e-03	3.885764e-02
2.950735937319030e-05	-3.051473e-03	3.273917e-02
2.960501562319030e-05	-2.461722e-03	2.645659e-02
2.970267187319030e-05	-1.857320e-03	2.000991e-02
2.974452455176173e-05	-1.597863e-03	1.723841e-02
2.978637723033316e-05	-1.337753e-03	1.445797e-02
2.982822990890459e-05	-1.076988e-03	1.166857e-02
2.987008258747602e-05	-8.155696e-04	8.870214e-03
2.991193526604745e-05	-5.534972e-04	6.062911e-03
2.995378794461888e-05	-2.907709e-04	3.246656e-03
2.999564062319031e-05	-2.739074e-05	4.214498e-04
3.004446874819031e-05	2.800874e-04	-2.879431e-03
3.009329687319032e-05	5.865836e-04	-6.172375e-03
3.014212499819032e-05	8.920976e-04	-9.457382e-03
3.019095312319032e-05	1.196630e-03	-1.273445e-02
3.023978124819032e-05	1.500180e-03	-1.600358e-02
3.028860937319032e-05	1.802748e-03	-1.926478e-02
3.033743749819032e-05	2.104334e-03	-2.251804e-02
3.044206919461890e-05	2.748509e-03	-2.947815e-02
3.054670089104747e-05	3.374286e-03	-3.624758e-02
3.065133258747605e-05	3.981663e-03	-4.282631e-02
3.075596428390462e-05	4.570642e-03	-4.921435e-02
3.086059598033319e-05	5.141222e-03	-5.541170e-02
3.096522767676177e-05	5.693404e-03	-6.141836e-02
3.106985937319034e-05	6.227186e-03	-6.723432e-02
3.123727008747607e-05	7.030034e-03	-7.600193e-02
3.140468080176178e-05	7.738667e-03	-8.373653e-02
3.157209151604750e-05	8.353087e-03	-9.043813e-02
3.173950223033322e-05	8.873292e-03	-9.610673e-02
3.190691294461894e-05	9.299284e-03	-1.007423e-01
3.207432365890465e-05	9.631062e-03	-1.043449e-01
3.224173437319038e-05	9.868626e-03	-1.069145e-01
3.244402231961895e-05	9.982505e-03	-1.080744e-01
3.264631026604753e-05	9.944148e-03	-1.075599e-01
3.284859821247611e-05	9.753554e-03	-1.053710e-01
3.305088615890468e-05	9.410725e-03	-1.015076e-01
3.325317410533326e-05	8.915659e-03	-9.596984e-02
3.345546205176184e-05	8.268358e-03	-8.875762e-02
3.365774999819042e-05	7.468820e-03	-7.987098e-02
3.376935714104757e-05	6.977605e-03	-7.443813e-02
3.388096428390471e-05	6.458868e-03	-6.871910e-02
3.399257142676185e-05	5.912606e-03	-6.271391e-02
3.410417856961900e-05	5.338822e-03	-5.642254e-02
3.421578571247615e-05	4.737513e-03	-4.984500e-02
3.432739285533329e-05	4.108682e-03	-4.298129e-02
3.443899999819044e-05	3.452327e-03	-3.583141e-02
3.450177901604759e-05	3.078046e-03	-3.176489e-02
3.456455803390473e-05	2.700460e-03	-2.766889e-02
3.462733705176187e-05	2.319570e-03	-2.354343e-02
3.469011606961902e-05	1.935374e-03	-1.938850e-02
3.475289508747617e-05	1.547874e-03	-1.520409e-02
3.481567410533331e-05	1.157069e-03	-1.099021e-02
3.487845312319045e-05	7.629594e-04	-6.746856e-03
3.502493749819046e-05	-1.566805e-04	3.128710e-03
3.509469196247618e-05	-5.966942e-04	7.840874e-03
3.516444642676189e-05	-1.033483e-03	1.251090e-02
3.523420089104761e-05	-1.467047e-03	1.713879e-02
3.530395535533332e-05	-1.897386e-03	2.172455e-02
3.537370981961904e-05	-2.324500e-03	2.626817e-02
3.544346428390475e-05	-2.748389e-03	3.076965e-02
3.551321874819047e-05	-3.169053e-03	3.522900e-02
3.563877678390476e-05	-3.916990e-03	4.313320e-02
3.576433481961905e-05	-4.630112e-03	5.065306e-02
3.588989285533334e-05	-5.308419e-03	5.778857e-02
3.601545089104763e-05	-5.951911e-03	6.453973e-02
3.614100892676192e-05	-6.560588e-03	7.090654e-02
3.626656696247621e-05	-7.134451e-03	7.688901e-02
3.639212499819050e-05	-7.673498e-03	8.248712e-02
3.670602008747622e-05	-8.798900e-03	9.410108e-02
3.701991517676194e-05	-9.552689e-03	1.018417e-01
3.733381026604767e-05	-9.934866e-03	1.057090e-01
3.764770535533339e-05	-9.945431e-03	1.057030e-01
3.796160044461911e-05	-9.584383e-03	1.018236e-01
3.827549553390484e-05	-8.851724e-03	9.407090e-02
3.858939062319056e-05	-7.747452e-03	8.244486e-02
3.871494865890484e-05	-7.215316e-03	7.684226e-02
3.884050669461914e-05	-6.647775e-03	7.085553e-02
3.896606473033342e-05	-6.044829e-03	6.448468e-02
3.909162276604772e-05	-5.406478e-03	5.772971e-02
3.921718080176200e-05	-4.732721e-03	5.059061e-02
3.934273883747630e-05	-4.023559e-03	4.306740e-02
3.946829687319058e-05	-3.278992e-03	3.516006e-02
3.953805133747630e-05	-2.859867e-03	3.069915e-02
3.960780580176202e-05	-2.437298e-03	2.619622e-02
3.967756026604773e-05	-2.011286e-03	2.165128e-02
3.974731473033345e-05	-1.581829e-03	1.706433e-02
3.981706919461917e-05	-1.148928e-03	1.243537e-02
3.988682365890488e-05	-7.125830e-04	7.764394e-03
3.995657812319060e-05	-2.727938e-04	3.051407e-03
4.020071874819060e-05	1.257813e-03	-1.339572e-02
4.029139955176203e-05	1.825111e-03	-1.951007e-02
4.038208035533347e-05	2.382066e-03	-2.552026e-02
4.047276115890490e-05	2.928679e-03	-3.142632e-02
4.056344196247633e-05	3.464948e-03	-3.722824e-02
4.065412276604776e-05	3.990875e-03	-4.292601e-02
4.074480356961919e-05	4.506459e-03	-4.851964e-02
4.083548437319062e-05	5.011700e-03	-5.400912e-02
4.097499330176205e-05	5.761768e-03	-6.217684e-02
4.111450223033349e-05	6.455553e-03	-6.973450e-02
4.125401115890492e-05	7.093055e-03	-7.668210e-02
4.139352008747636e-05	7.674275e-03	-8.301965e-02
4.153302901604779e-05	8.199213e-03	-8.874714e-02
4.167253794461922e-05	8.667867e-03	-9.386458e-02
4.181204687319065e-05	9.080240e-03	-9.837197e-02
4.206316294461923e-05	9.621009e-03	-1.042389e-01
4.231427901604781e-05	9.921722e-03	-1.074569e-01
4.256539508747639e-05	9.982381e-03	-1.080259e-01
4.281651115890496e-05	9.802983e-03	-1.059461e-01
4.306762723033354e-05	9.383530e-03	-1.012173e-01
4.331874330176212e-05	8.724022e-03	-9.383958e-02
4.356985937319070e-05	7.824458e-03	-8.381294e-02
4.368844196247642e-05	7.331147e-03	-7.834583e-02
4.380702455176214e-05	6.804994e-03	-7.253513e-02
4.392560714104786e-05	6.246000e-03	-6.638085e-02
4.404418973033357e-05	5.654165e-03	-5.988298e-02
4.416277231961929e-05	5.029488e-03	-5.304152e-02
4.428135490890500e-05	4.371970e-03	-4.585648e-02
4.439993749819072e-05	3.681611e-03	-3.832786e-02
4.446969196247644e-05	3.268670e-03	-3.383744e-02
4.453944642676216e-05	2.851479e-03	-2.930874e-02
4.460920089104788e-05	2.430037e-03	-2.474176e-02
4.467895535533359e-05	2.004345e-03	-2.013650e-02
4.474870981961931e-05	1.574402e-03	-1.549297e-02
4.481846428390502e-05	1.140209e-03	-1.081116e-02
4.488821874819074e-05	7.017651e-04	-6.091071e-03
4.503470312319074e-05	-2.180289e-04	3.783800e-03
4.510445758747646e-05	-6.579313e-04	8.493638e-03
4.517421205176217e-05	-1.094493e-03	1.316013e-02
4.524396651604789e-05	-1.527714e-03	1.778327e-02
4.531372098033361e-05	-1.957594e-03	2.236306e-02
4.538347544461933e-05	-2.384133e-03	2.689950e-02
4.545322990890504e-05	-2.807332e-03	3.139259e-02
4.552298437319076e-05	-3.227190e-03	3.584233e-02
4.564854240890504e-05	-3.973359e-03	4.372599e-02
4.577410044461934e-05	-4.684401e-03	5.122220e-02
4.589965848033362e-05	-5.360315e-03	5.833097e-02
4.602521651604792e-05	-6.001102e-03	6.505230e-02
4.615077455176220e-05	-6.606762e-03	7.138618e-02
4.627633258747650e-05	-7.177294e-03	7.733262e-02
4.640189062319078e-05	-7.712699e-03	8.289161e-02
4.671578571247651e-05	-8.826956e-03	9.438864e-02
4.702968080176223e-05	-9.569594e-03	1.020124e-01
4.734357589104795e-05	-9.940614e-03	1.057629e-01
4.765747098033367e-05	-9.940016e-03	1.056401e-01
4.797136606961940e-05	-9.567799e-03	1.016441e-01
4.828526115890512e-05	-8.823964e-03	9.377480e-02
4.859915624819085e-05	-7.708510e-03	8.203223e-02
4.866891071247656e-05	-7.420464e-03	7.899780e-02
4.873866517676228e-05	-7.119682e-03	7.582680e-02
4.880841964104800e-05	-6.806165e-03	7.251923e-02
4.887817410533371e-05	-6.479912e-03	6.907509e-02
4.894792856961943e-05	-6.140925e-03	6.549437e-02
4.901768303390514e-05	-5.789203e-03	6.177709e-02
4.908743749819086e-05	-5.424745e-03	5.792323e-02
4.913626562319086e-05	-5.164502e-03	5.516857e-02
4.922694642676229e-05	-4.664185e-03	4.986937e-02
4.931762723033372e-05	-4.152983e-03	4.444659e-02
4.940830803390515e-05	-3.630896e-03	3.890022e-02
4.949898883747659e-05	-3.097923e-03	3.323026e-02
4.958966964104802e-05	-2.554066e-03	2.743672e-02
4.968035044461945e-05	-1.999323e-03	2.151958e-02
4.977103124819088e-05	-1.433696e-03	1.547885e-02
4.996634374819088e-05	-2.114527e-04	2.391496e-03
5.000000000000000e-05	-4.777360e-17	1.232880e-04
