time	V(n002)	I(R6)
0.000000000000000e+00	3.163680e-14	6.731233e-18
4.882812361904632e-13	1.167760e-07	2.484596e-11
9.765624723809263e-13	1.563316e-07	3.326205e-11
9.765624723809266e-12	7.160398e-08	1.523489e-11
1.855468697523761e-11	4.997736e-09	1.063347e-12
2.734374922666595e-11	-4.348712e-08	-9.252579e-12
3.613281147809429e-11	-7.385058e-08	-1.571289e-11
4.492187372952262e-11	-8.609265e-08	-1.831759e-11
5.371093598095097e-11	-8.021333e-08	-1.706667e-11
6.249999823237928e-11	-5.621263e-08	-1.196013e-11
4.999999858590343e-10	-4.514935e-06	-9.606246e-10
9.999999717180685e-10	-1.630003e-05	-3.468093e-09
1.999999943436137e-09	-5.387172e-05	-1.146207e-08
3.999999886872274e-09	-1.583319e-04	-3.368763e-08
7.999999773744548e-09	-4.085952e-04	-8.693515e-08
1.599999954748910e-08	-9.425680e-04	-2.005464e-07
7.168526721069874e-08	-4.710080e-03	-1.002145e-06
1.273705348739084e-07	-8.463572e-03	-1.800760e-06
1.830558025371180e-07	-1.220304e-02	-2.596392e-06
2.387410702003277e-07	-1.592850e-02	-3.389042e-06
2.944263378635373e-07	-1.963993e-02	-4.178708e-06
3.501116055267469e-07	-2.333734e-02	-4.965392e-06
4.057968731899564e-07	-2.702073e-02	-5.749092e-06
5.104285696185279e-07	-3.390667e-02	-7.214185e-06
6.150602660470994e-07	-4.058321e-02	-8.634725e-06
7.196919624756708e-07	-4.705035e-02	-1.001071e-05
8.243236589042423e-07	-5.330809e-02	-1.134215e-05
9.289553553328137e-07	-5.935644e-02	-1.262903e-05
1.033587051761385e-06	-6.519539e-02	-1.387136e-05
1.138218748189956e-06	-7.082495e-02	-1.506914e-05
1.312604908904242e-06	-7.959385e-02	-1.693486e-05
1.486991069618528e-06	-8.720413e-02	-1.855407e-05
1.661377230332814e-06	-9.365576e-02	-1.992676e-05
1.835763391047099e-06	-9.894877e-02	-2.105293e-05
2.010149551761386e-06	-1.030831e-01	-2.193258e-05
2.184535712475671e-06	-1.060589e-01	-2.256572e-05
2.358921873189956e-06	-1.078760e-01	-2.295234e-05
2.547258926761386e-06	-1.080453e-01	-2.298836e-05
2.735595980332815e-06	-1.067809e-01	-2.271934e-05
2.923933033904244e-06	-1.040828e-01	-2.214528e-05
3.112270087475673e-06	-9.995100e-02	-2.126617e-05
3.300607141047102e-06	-9.438550e-02	-2.008202e-05
3.488944194618531e-06	-8.738631e-02	-1.859283e-05
3.677281248189960e-06	-7.895341e-02	-1.679860e-05
3.788888391047102e-06	-7.345396e-02	-1.562850e-05
3.900495533904245e-06	-6.767408e-02	-1.439874e-05
4.012102676761387e-06	-6.161378e-02	-1.310932e-05
4.123709819618529e-06	-5.527306e-02	-1.176023e-05
4.235316962475672e-06	-4.865191e-02	-1.035147e-05
4.346924105332814e-06	-4.175034e-02	-8.883050e-06
4.458531248189956e-06	-3.456834e-02	-7.354965e-06
4.521310266047098e-06	-3.048682e-02	-6.486558e-06
4.584089283904241e-06	-2.637789e-02	-5.612316e-06
4.646868301761383e-06	-2.224154e-02	-4.732242e-06
4.709647319618526e-06	-1.807777e-02	-3.846334e-06
4.772426337475669e-06	-1.388659e-02	-2.954594e-06
4.835205355332811e-06	-9.667992e-03	-2.057020e-06
4.897984373189953e-06	-5.421977e-03	-1.153612e-06
5.044468748189953e-06	4.451773e-03	9.471858e-07
5.114223212475667e-06	9.159082e-03	1.948741e-06
5.183977676761380e-06	1.382183e-02	2.940815e-06
5.253732141047094e-06	1.844002e-02	3.923409e-06
5.323486605332808e-06	2.301365e-02	4.896522e-06
5.393241069618522e-06	2.754273e-02	5.860155e-06
5.462995533904235e-06	3.202724e-02	6.814307e-06
5.532749998189950e-06	3.646720e-02	7.758978e-06
5.658308033904234e-06	4.432997e-02	9.431909e-06
5.783866069618520e-06	5.180223e-02	1.102175e-05
5.909424105332805e-06	5.888396e-02	1.252850e-05
6.034982141047089e-06	6.557517e-02	1.395216e-05
6.160540176761375e-06	7.187587e-02	1.529274e-05
6.286098212475660e-06	7.778605e-02	1.655022e-05
6.411656248189944e-06	8.330570e-02	1.772462e-05
6.725551337475657e-06	9.468534e-02	2.014582e-05
7.039446426761369e-06	1.021919e-01	2.174296e-05
7.353341516047082e-06	1.058255e-01	2.251605e-05
7.667236605332796e-06	1.055859e-01	2.246509e-05
7.981131694618508e-06	1.014734e-01	2.159008e-05
8.295026783904221e-06	9.348774e-02	1.989101e-05
8.608921873189932e-06	8.162907e-02	1.736789e-05
8.734479908904217e-06	7.594883e-02	1.615933e-05
8.860037944618501e-06	6.989072e-02	1.487037e-05
8.985595980332786e-06	6.345471e-02	1.350100e-05
9.111154016047072e-06	5.664083e-02	1.205124e-05
9.236712051761357e-06	4.944907e-02	1.052108e-05
9.362270087475642e-06	4.187942e-02	8.910514e-06
9.487828123189926e-06	3.393188e-02	7.219550e-06
9.550607141047070e-06	2.990690e-02	6.363170e-06
9.613386158904211e-06	2.584737e-02	5.499440e-06
9.676165176761354e-06	2.175330e-02	4.628361e-06
9.738944194618496e-06	1.762468e-02	3.749932e-06
9.801723212475639e-06	1.346152e-02	2.864153e-06
9.864502230332781e-06	9.263822e-03	1.971026e-06
9.927281248189924e-06	5.031579e-03	1.070549e-06
1.022024999818992e-05	-1.469768e-02	-3.127166e-06
1.031093080176135e-05	-2.080175e-02	-4.425904e-06
1.040161160533278e-05	-2.679749e-02	-5.701593e-06
1.049229240890421e-05	-3.268489e-02	-6.954232e-06
1.058297321247563e-05	-3.846396e-02	-8.183822e-06
1.067365401604706e-05	-4.413470e-02	-9.390361e-06
1.076433481961849e-05	-4.969710e-02	-1.057385e-05
1.085501562318992e-05	-5.515117e-02	-1.173429e-05
1.100149999818992e-05	-6.366100e-02	-1.354489e-05
1.114798437318992e-05	-7.148094e-02	-1.520871e-05
1.129446874818992e-05	-7.861099e-02	-1.672574e-05
1.144095312318991e-05	-8.505115e-02	-1.809599e-05
1.158743749818991e-05	-9.080142e-02	-1.931945e-05
1.173392187318991e-05	-9.586180e-02	-2.039613e-05
1.188040624818991e-05	-1.002323e-01	-2.132602e-05
1.211757142676134e-05	-1.051651e-01	-2.237556e-05
1.235473660533277e-05	-1.077313e-01	-2.292155e-05
1.259190178390419e-05	-1.079307e-01	-2.296398e-05
1.282906696247562e-05	-1.057635e-01	-2.250287e-05
1.306623214104705e-05	-1.012295e-01	-2.153820e-05
1.330339731961848e-05	-9.432888e-02	-2.006998e-05
1.354056249818990e-05	-8.506154e-02	-1.809820e-05
1.365914508747562e-05	-7.970831e-02	-1.695921e-05
1.377772767676133e-05	-7.400208e-02	-1.574512e-05
1.389631026604704e-05	-6.794287e-02	-1.445593e-05
1.401489285533276e-05	-6.153068e-02	-1.309163e-05
1.413347544461847e-05	-5.476549e-02	-1.165223e-05
1.425205803390418e-05	-4.764732e-02	-1.013773e-05
1.437064062318990e-05	-4.017617e-02	-8.548121e-06
1.444039508747561e-05	-3.571400e-02	-7.598724e-06
1.451014955176133e-05	-3.120977e-02	-6.640376e-06
1.457990401604704e-05	-2.666346e-02	-5.673076e-06
1.464965848033275e-05	-2.207507e-02	-4.696824e-06
1.471941294461847e-05	-1.744462e-02	-3.711621e-06
1.478916740890418e-05	-1.277209e-02	-2.717466e-06
1.485892187318989e-05	-8.057486e-03	-1.714359e-06
1.490077455176132e-05	-5.231902e-03	-1.113171e-06
1.494262723033275e-05	-2.409452e-03	-5.126494e-07
1.498447990890418e-05	4.098625e-04	8.720479e-08
1.502633258747561e-05	3.226042e-03	6.863919e-07
1.506818526604704e-05	6.039086e-03	1.284912e-06
1.511003794461846e-05	8.848995e-03	1.882765e-06
1.515189062318989e-05	1.165577e-02	2.479951e-06
1.524257142676132e-05	1.773597e-02	3.773612e-06
1.533325223033275e-05	2.370405e-02	5.043414e-06
1.542393303390418e-05	2.955999e-02	6.289359e-06
1.551461383747561e-05	3.530380e-02	7.511446e-06
1.560529464104704e-05	4.093547e-02	8.709675e-06
1.569597544461848e-05	4.645502e-02	9.884047e-06
1.578665624818991e-05	5.186243e-02	1.103456e-05
1.593314062318991e-05	6.028627e-02	1.282687e-05
1.607962499818991e-05	6.805279e-02	1.447932e-05
1.622610937318992e-05	7.516201e-02	1.599192e-05
1.637259374818992e-05	8.161390e-02	1.736466e-05
1.651907812318993e-05	8.740849e-02	1.859755e-05
1.666556249818993e-05	9.254576e-02	1.969059e-05
1.681204687318993e-05	9.702571e-02	2.064377e-05
1.707013839104708e-05	1.026564e-01	2.184178e-05
1.732822990890424e-05	1.056570e-01	2.248021e-05
1.758632142676138e-05	1.060276e-01	2.255907e-05
1.784441294461854e-05	1.037682e-01	2.207834e-05
1.810250446247569e-05	9.887878e-02	2.103804e-05
1.836059598033284e-05	9.135933e-02	1.943815e-05
1.861868749818999e-05	8.120985e-02	1.727869e-05
1.873727008747570e-05	7.583241e-02	1.613456e-05
1.885585267676142e-05	7.011344e-02	1.491775e-05
1.897443526604714e-05	6.405295e-02	1.362829e-05
1.909301785533286e-05	5.765093e-02	1.226616e-05
1.921160044461858e-05	5.090739e-02	1.083136e-05
1.933018303390429e-05	4.382232e-02	9.323897e-06
1.944876562319001e-05	3.639572e-02	7.743771e-06
1.951852008747573e-05	3.195416e-02	6.798758e-06
1.958827455176144e-05	2.746816e-02	5.844290e-06
1.965802901604716e-05	2.293773e-02	4.880368e-06
1.972778348033288e-05	1.836286e-02	3.906991e-06
1.979753794461859e-05	1.374355e-02	2.924159e-06
1.986729240890431e-05	9.079804e-03	1.931873e-06
1.993704687319002e-05	4.371623e-03	9.301325e-07
2.023001562319003e-05	-1.535485e-02	-3.266990e-06
2.032069642676146e-05	-2.145345e-02	-4.564563e-06
2.041137723033290e-05	-2.744162e-02	-5.838642e-06
2.050205803390433e-05	-3.331936e-02	-7.089226e-06
2.059273883747576e-05	-3.908668e-02	-8.316315e-06
2.068341964104719e-05	-4.474358e-02	-9.519910e-06
2.077410044461862e-05	-5.029005e-02	-1.070001e-05
2.086478124819005e-05	-5.572610e-02	-1.185662e-05
2.101126562319005e-05	-6.420190e-02	-1.365998e-05
2.115774999819006e-05	-7.198390e-02	-1.531572e-05
2.130423437319006e-05	-7.907209e-02	-1.682385e-05
2.145071874819007e-05	-8.546648e-02	-1.818436e-05
2.159720312319007e-05	-9.116707e-02	-1.939725e-05
2.174368749819008e-05	-9.617385e-02	-2.046252e-05
2.189017187319008e-05	-1.004868e-01	-2.138017e-05
2.212733705176151e-05	-1.053176e-01	-2.240799e-05
2.236450223033295e-05	-1.077839e-01	-2.293274e-05
2.260166740890439e-05	-1.078857e-01	-2.295441e-05
2.283883258747582e-05	-1.056232e-01	-2.247301e-05
2.307599776604726e-05	-1.009961e-01	-2.148854e-05
2.331316294461869e-05	-9.400463e-02	-2.000099e-05
2.355032812319013e-05	-8.464870e-02	-1.801036e-05
2.366891071247584e-05	-7.925729e-02	-1.686325e-05
2.378749330176156e-05	-7.351601e-02	-1.564170e-05
2.390607589104728e-05	-6.742486e-02	-1.434572e-05
2.402465848033300e-05	-6.098385e-02	-1.297529e-05
2.414324106961872e-05	-5.419298e-02	-1.153042e-05
2.426182365890443e-05	-4.705223e-02	-1.001111e-05
2.438040624819015e-05	-3.956163e-02	-8.417367e-06
2.445016071247587e-05	-3.508987e-02	-7.465929e-06
2.451991517676158e-05	-3.057730e-02	-6.505809e-06
2.458966964104730e-05	-2.602393e-02	-5.537006e-06
2.465942410533302e-05	-2.142974e-02	-4.559520e-06
2.472917856961873e-05	-1.679475e-02	-3.573351e-06
2.479893303390445e-05	-1.211895e-02	-2.578500e-06
2.486868749819017e-05	-7.402339e-03	-1.574966e-06
2.501517187319017e-05	2.473549e-03	5.262871e-07
2.507795089104731e-05	6.713463e-03	1.428396e-06
2.514072990890446e-05	1.092268e-02	2.323974e-06
2.520350892676160e-05	1.510120e-02	3.213021e-06
2.526628794461875e-05	1.924902e-02	4.095536e-06
2.532906696247589e-05	2.336614e-02	4.971520e-06
2.539184598033304e-05	2.745257e-02	5.840973e-06
2.545462499819018e-05	3.150830e-02	6.703894e-06
2.557320758747590e-05	3.908062e-02	8.315025e-06
2.569179017676162e-05	4.633384e-02	9.858264e-06
2.581037276604733e-05	5.326796e-02	1.133361e-05
2.592895535533305e-05	5.988298e-02	1.274106e-05
2.604753794461877e-05	6.617890e-02	1.408062e-05
2.616612053390449e-05	7.215572e-02	1.535228e-05
2.628470312319021e-05	7.781344e-02	1.655605e-05
2.651489285533307e-05	8.759409e-02	1.863704e-05
2.674508258747593e-05	9.531203e-02	2.027916e-05
2.697527231961880e-05	1.009673e-01	2.148240e-05
2.720546205176166e-05	1.045598e-01	2.224677e-05
2.743565178390453e-05	1.060896e-01	2.257226e-05
2.766584151604739e-05	1.055567e-01	2.245888e-05
2.789603124819025e-05	1.029612e-01	2.190663e-05
2.805646651604740e-05	9.968326e-02	2.120920e-05
2.821690178390455e-05	9.553272e-02	2.032611e-05
2.837733705176169e-05	9.050954e-02	1.925735e-05
2.853777231961884e-05	8.461374e-02	1.800292e-05
2.869820758747599e-05	7.784530e-02	1.656283e-05
2.885864285533314e-05	7.020423e-02	1.493707e-05
2.901907812319028e-05	6.169053e-02	1.312564e-05
2.911673437319029e-05	5.622846e-02	1.196350e-05
2.921439062319029e-05	5.060229e-02	1.076644e-05
2.931204687319029e-05	4.481202e-02	9.534472e-06
2.940970312319030e-05	3.885764e-02	8.267583e-06
2.950735937319030e-05	3.273917e-02	6.965780e-06
2.960501562319030e-05	2.645659e-02	5.629061e-06
2.970267187319030e-05	2.000991e-02	4.257427e-06
2.974452455176173e-05	1.723841e-02	3.667747e-06
2.978637723033316e-05	1.445797e-02	3.076163e-06
2.982822990890459e-05	1.166857e-02	2.482674e-06
2.987008258747602e-05	8.870214e-03	1.887280e-06
2.991193526604745e-05	6.062911e-03	1.289981e-06
2.995378794461888e-05	3.246656e-03	6.907780e-07
2.999564062319031e-05	4.214498e-04	8.967017e-08
3.004446874819031e-05	-2.879431e-03	-6.126449e-07
3.009329687319032e-05	-6.172375e-03	-1.313271e-06
3.014212499819032e-05	-9.457382e-03	-2.012209e-06
3.019095312319032e-05	-1.273445e-02	-2.709458e-06
3.023978124819032e-05	-1.600358e-02	-3.405018e-06
3.028860937319032e-05	-1.926478e-02	-4.098889e-06
3.033743749819032e-05	-2.251804e-02	-4.791072e-06
3.044206919461890e-05	-2.947815e-02	-6.271947e-06
3.054670089104747e-05	-3.624758e-02	-7.712250e-06
3.065133258747605e-05	-4.282631e-02	-9.111980e-06
3.075596428390462e-05	-4.921435e-02	-1.047114e-05
3.086059598033319e-05	-5.541170e-02	-1.178972e-05
3.096522767676177e-05	-6.141836e-02	-1.306773e-05
3.106985937319034e-05	-6.723432e-02	-1.430517e-05
3.123727008747607e-05	-7.600193e-02	-1.617062e-05
3.140468080176178e-05	-8.373653e-02	-1.781628e-05
3.157209151604750e-05	-9.043813e-02	-1.924216e-05
3.173950223033322e-05	-9.610673e-02	-2.044824e-05
3.190691294461894e-05	-1.007423e-01	-2.143454e-05
3.207432365890465e-05	-1.043449e-01	-2.220105e-05
3.224173437319038e-05	-1.069145e-01	-2.274777e-05
3.244402231961895e-05	-1.080744e-01	-2.299456e-05
3.264631026604753e-05	-1.075599e-01	-2.288509e-05
3.284859821247611e-05	-1.053710e-01	-2.241936e-05
3.305088615890468e-05	-1.015076e-01	-2.159737e-05
3.325317410533326e-05	-9.596984e-02	-2.041911e-05
3.345546205176184e-05	-8.875762e-02	-1.888460e-05
3.365774999819042e-05	-7.987098e-02	-1.699382e-05
3.376935714104757e-05	-7.443813e-02	-1.583790e-05
3.388096428390471e-05	-6.871910e-02	-1.462109e-05
3.399257142676185e-05	-6.271391e-02	-1.334339e-05
3.410417856961900e-05	-5.642254e-02	-1.200480e-05
3.421578571247615e-05	-4.984500e-02	-1.060532e-05
3.432739285533329e-05	-4.298129e-02	-9.144956e-06
3.443899999819044e-05	-3.583141e-02	-7.623704e-06
3.450177901604759e-05	-3.176489e-02	-6.758487e-06
3.456455803390473e-05	-2.766889e-02	-5.886999e-06
3.462733705176187e-05	-2.354343e-02	-5.009241e-06
3.469011606961902e-05	-1.938850e-02	-4.125212e-06
3.475289508747617e-05	-1.520409e-02	-3.234912e-06
3.481567410533331e-05	-1.099021e-02	-2.338342e-06
3.487845312319045e-05	-6.746856e-03	-1.435501e-06
3.502493749819046e-05	3.128710e-03	6.656830e-07
3.509469196247618e-05	7.840874e-03	1.668271e-06
3.516444642676189e-05	1.251090e-02	2.661894e-06
3.523420089104761e-05	1.713879e-02	3.646552e-06
3.530395535533332e-05	2.172455e-02	4.622244e-06
3.537370981961904e-05	2.626817e-02	5.588972e-06
3.544346428390475e-05	3.076965e-02	6.546734e-06
3.551321874819047e-05	3.522900e-02	7.495531e-06
3.563877678390476e-05	4.313320e-02	9.177278e-06
3.576433481961905e-05	5.065306e-02	1.077725e-05
3.588989285533334e-05	5.778857e-02	1.229544e-05
3.601545089104763e-05	6.453973e-02	1.373186e-05
3.614100892676192e-05	7.090654e-02	1.508650e-05
3.626656696247621e-05	7.688901e-02	1.635936e-05
3.639212499819050e-05	8.248712e-02	1.755045e-05
3.670602008747622e-05	9.410108e-02	2.002151e-05
3.701991517676194e-05	1.018417e-01	2.166845e-05
3.733381026604767e-05	1.057090e-01	2.249128e-05
3.764770535533339e-05	1.057030e-01	2.248999e-05
3.796160044461911e-05	1.018236e-01	2.166460e-05
3.827549553390484e-05	9.407090e-02	2.001508e-05
3.858939062319056e-05	8.244486e-02	1.754146e-05
3.871494865890484e-05	7.684226e-02	1.634942e-05
3.884050669461914e-05	7.085553e-02	1.507564e-05
3.896606473033342e-05	6.448468e-02	1.372014e-05
3.909162276604772e-05	5.772971e-02	1.228292e-05
3.921718080176200e-05	5.059061e-02	1.076396e-05
3.934273883747630e-05	4.306740e-02	9.163276e-06
3.946829687319058e-05	3.516006e-02	7.480864e-06
3.953805133747630e-05	3.069915e-02	6.531734e-06
3.960780580176202e-05	2.619622e-02	5.573664e-06
3.967756026604773e-05	2.165128e-02	4.606656e-06
3.974731473033345e-05	1.706433e-02	3.630709e-06
3.981706919461917e-05	1.243537e-02	2.645823e-06
3.988682365890488e-05	7.764394e-03	1.651999e-06
3.995657812319060e-05	3.051407e-03	6.492355e-07
4.020071874819060e-05	-1.339572e-02	-2.850154e-06
4.029139955176203e-05	-1.951007e-02	-4.151078e-06
4.038208035533347e-05	-2.552026e-02	-5.429844e-06
4.047276115890490e-05	-3.142632e-02	-6.686452e-06
4.056344196247633e-05	-3.722824e-02	-7.920901e-06
4.065412276604776e-05	-4.292601e-02	-9.133193e-06
4.074480356961919e-05	-4.851964e-02	-1.032333e-05
4.083548437319062e-05	-5.400912e-02	-1.149130e-05
4.097499330176205e-05	-6.217684e-02	-1.322911e-05
4.111450223033349e-05	-6.973450e-02	-1.483713e-05
4.125401115890492e-05	-7.668210e-02	-1.631534e-05
4.139352008747636e-05	-8.301965e-02	-1.766375e-05
4.153302901604779e-05	-8.874714e-02	-1.888237e-05
4.167253794461922e-05	-9.386458e-02	-1.997119e-05
4.181204687319065e-05	-9.837197e-02	-2.093021e-05
4.206316294461923e-05	-1.042389e-01	-2.217849e-05
4.231427901604781e-05	-1.074569e-01	-2.286316e-05
4.256539508747639e-05	-1.080259e-01	-2.298424e-05
4.281651115890496e-05	-1.059461e-01	-2.254172e-05
4.306762723033354e-05	-1.012173e-01	-2.153559e-05
4.331874330176212e-05	-9.383958e-02	-1.996587e-05
4.356985937319070e-05	-8.381294e-02	-1.783254e-05
4.368844196247642e-05	-7.834583e-02	-1.666933e-05
4.380702455176214e-05	-7.253513e-02	-1.543301e-05
4.392560714104786e-05	-6.638085e-02	-1.412358e-05
4.404418973033357e-05	-5.988298e-02	-1.274106e-05
4.416277231961929e-05	-5.304152e-02	-1.128543e-05
4.428135490890500e-05	-4.585648e-02	-9.756699e-06
4.439993749819072e-05	-3.832786e-02	-8.154864e-06
4.446969196247644e-05	-3.383744e-02	-7.199455e-06
4.453944642676216e-05	-2.930874e-02	-6.235901e-06
4.460920089104788e-05	-2.474176e-02	-5.264204e-06
4.467895535533359e-05	-2.013650e-02	-4.284362e-06
4.474870981961931e-05	-1.549297e-02	-3.296376e-06
4.481846428390502e-05	-1.081116e-02	-2.300247e-06
4.488821874819074e-05	-6.091071e-03	-1.295973e-06
4.503470312319074e-05	3.783800e-03	8.050638e-07
4.510445758747646e-05	8.493638e-03	1.807157e-06
4.517421205176217e-05	1.316013e-02	2.800027e-06
4.524396651604789e-05	1.778327e-02	3.783673e-06
4.531372098033361e-05	2.236306e-02	4.758097e-06
4.538347544461933e-05	2.689950e-02	5.723297e-06
4.545322990890504e-05	3.139259e-02	6.679274e-06
4.552298437319076e-05	3.584233e-02	7.626028e-06
4.564854240890504e-05	4.372599e-02	9.303402e-06
4.577410044461934e-05	5.122220e-02	1.089834e-05
4.589965848033362e-05	5.833097e-02	1.241084e-05
4.602521651604792e-05	6.505230e-02	1.384091e-05
4.615077455176220e-05	7.138618e-02	1.518855e-05
4.627633258747650e-05	7.733262e-02	1.645375e-05
4.640189062319078e-05	8.289161e-02	1.763651e-05
4.671578571247651e-05	9.438864e-02	2.008269e-05
4.702968080176223e-05	1.020124e-01	2.170477e-05
4.734357589104795e-05	1.057629e-01	2.250275e-05
4.765747098033367e-05	1.056401e-01	2.247662e-05
4.797136606961940e-05	1.016441e-01	2.162640e-05
4.828526115890512e-05	9.377480e-02	1.995208e-05
4.859915624819085e-05	8.203223e-02	1.745367e-05
4.866891071247656e-05	7.899780e-02	1.680804e-05
4.873866517676228e-05	7.582680e-02	1.613336e-05
4.880841964104800e-05	7.251923e-02	1.542962e-05
4.887817410533371e-05	6.907509e-02	1.469683e-05
4.894792856961943e-05	6.549437e-02	1.393497e-05
4.901768303390514e-05	6.177709e-02	1.314406e-05
4.908743749819086e-05	5.792323e-02	1.232409e-05
4.913626562319086e-05	5.516857e-02	1.173799e-05
4.922694642676229e-05	4.986937e-02	1.061051e-05
4.931762723033372e-05	4.444659e-02	9.456722e-06
4.940830803390515e-05	3.890022e-02	8.276643e-06
4.949898883747659e-05	3.323026e-02	7.070269e-06
4.958966964104802e-05	2.743672e-02	5.837599e-06
4.968035044461945e-05	2.151958e-02	4.578634e-06
4.977103124819088e-05	1.547885e-02	3.293373e-06
4.996634374819088e-05	2.391496e-03	5.088289e-07
5.000000000000000e-05	1.232880e-04	2.623149e-08
