LTspice 24.0.12 for Windows
<<<<<<< HEAD
Circuit: * C:\Users\maxir\Escritorio\CircuitosMicroelectronicos\Clases\2009practica.asc
Start Time: Wed Sep 25 00:42:23 2024
Warning: Multiple definitions of model "2scr375p" Type: BJT
Warning: Multiple definitions of model "bc857b" Type: BJT
Warning: Multiple definitions of model "bc847c" Type: BJT
Warning: Multiple definitions of model "bc847b" Type: BJT
solver = Normal
Maximum thread count: 22
tnom = 27
temp = 27
method = modified trap
Direct Newton iteration for .op point succeeded.
Semiconductor Device Operating Points:
                        --- Bipolar Transistors ---
Name:       q1
Model:    bc857a
Ib:      -1.48e-05
Ic:      -2.63e-03
Vbe:     -6.73e-01
Vbc:      1.04e+01
Vce:     -1.11e+01
BetaDC:   1.78e+02
Gm:       1.00e-01
Rpi:      1.75e+03
Rx:       6.74e+00
Ro:       2.56e+04
Cbe:      1.08e-10
Cbc:      1.10e-12
Cjs:      0.00e+00
BetaAC:   1.76e+02
Cbx:      6.51e-13
Ft:       1.45e+08


Total elapsed time: 0.180 seconds.
=======
Circuit: * C:\Users\Maxi\Desktop\CIRCUITOS MICROELECTRONICOS\Clases\2009practica.asc
Start Time: Wed Sep 25 01:20:10 2024
solver = Normal
Maximum thread count: 28
tnom = 27
temp = 27
method = modified trap
.OP point found by inspection.
Total elapsed time: 0.026 seconds.
>>>>>>> 4fd11b2adb21b28e08d6f68dd10e019ce45f44e0

