time	V(emisor)	V(n003)
0.000000000000000e+00	1.689096e+00	2.356301e-16
4.882812557061023e-11	1.689098e+00	1.753209e-06
9.765625114122045e-11	1.689100e+00	3.215640e-06
1.953125022824409e-10	1.689103e+00	5.250879e-06
3.906250045648818e-10	1.689106e+00	7.384280e-06
7.812500091297636e-10	1.689108e+00	9.097953e-06
1.562500018259527e-09	1.689110e+00	1.170034e-05
3.125000036519054e-09	1.689118e+00	1.926319e-05
6.250000073038109e-09	1.689136e+00	3.789731e-05
1.250000014607622e-08	1.689175e+00	7.701805e-05
4.412723225095356e-06	1.716411e+00	2.774159e-02
8.812946450044637e-06	1.743579e+00	5.533308e-02
1.321316967499392e-05	1.770681e+00	8.285148e-02
1.761339289994320e-05	1.797715e+00	1.102968e-01
2.201361612489248e-05	1.824682e+00	1.376690e-01
2.641383934984176e-05	1.851581e+00	1.649682e-01
3.081406257479102e-05	1.878413e+00	1.921943e-01
3.918459828907674e-05	1.929287e+00	2.438000e-01
4.755513400336246e-05	1.979169e+00	2.943901e-01
5.592566971764818e-05	2.028059e+00	3.439645e-01
6.429620543193390e-05	2.075958e+00	3.925233e-01
7.266674114621962e-05	2.122864e+00	4.400663e-01
8.103727686050534e-05	2.168779e+00	4.865937e-01
8.940781257479103e-05	2.213702e+00	5.321053e-01
9.917343757479104e-05	2.263886e+00	5.829446e-01
1.040562500747910e-04	2.288180e+00	6.075531e-01
1.089390625747910e-04	2.311911e+00	6.315898e-01
1.138218750747911e-04	2.335056e+00	6.550321e-01
1.187046875747911e-04	2.357593e+00	6.778579e-01
1.235875000747910e-04	2.379500e+00	7.000457e-01
1.284703125747911e-04	2.400757e+00	7.215746e-01
1.333531250747911e-04	2.421344e+00	7.424244e-01
1.431187500747911e-04	2.460429e+00	7.820089e-01
1.528843750747911e-04	2.496605e+00	8.186500e-01
1.626500000747911e-04	2.529736e+00	8.522099e-01
1.724156250747911e-04	2.559695e+00	8.825624e-01
1.821812500747911e-04	2.586368e+00	9.095930e-01
1.919468750747911e-04	2.609654e+00	9.332001e-01
2.017125000747911e-04	2.629464e+00	9.532950e-01
2.114781250747911e-04	2.645722e+00	9.698018e-01
2.212437500747911e-04	2.658368e+00	9.826586e-01
2.358921875747911e-04	2.670460e+00	9.949977e-01
2.505406250747911e-04	2.674214e+00	9.989141e-01
2.651890625747911e-04	2.669599e+00	9.943745e-01
2.798375000747912e-04	2.656652e+00	9.814174e-01
2.896031250747912e-04	2.643445e+00	9.681541e-01
2.993687500747912e-04	2.626634e+00	9.512470e-01
3.091343750747912e-04	2.606282e+00	9.307596e-01
3.189000000747912e-04	2.582466e+00	9.067691e-01
3.286656250747912e-04	2.555279e+00	8.793657e-01
3.384312500747912e-04	2.524822e+00	8.486526e-01
3.481968750747912e-04	2.491212e+00	8.147453e-01
3.579625000747912e-04	2.454577e+00	7.777716e-01
3.677281250747912e-04	2.415056e+00	7.378705e-01
3.726109375747912e-04	2.394260e+00	7.168686e-01
3.774937500747912e-04	2.372800e+00	6.951922e-01
3.823765625747912e-04	2.350696e+00	6.728614e-01
3.872593750747913e-04	2.327969e+00	6.498973e-01
3.921421875747913e-04	2.304641e+00	6.263216e-01
3.970250000747913e-04	2.280734e+00	6.021564e-01
4.019078125747913e-04	2.256271e+00	5.774245e-01
4.116734375747913e-04	2.205770e+00	5.263541e-01
4.214390625747913e-04	2.153330e+00	4.733025e-01
4.360875000747913e-04	2.071473e+00	3.904493e-01
4.437604911462199e-04	2.026999e+00	3.454150e-01
4.514334822176485e-04	1.982016e+00	2.998464e-01
4.591064732890770e-04	1.936524e+00	2.537436e-01
4.667794643605056e-04	1.890523e+00	2.071064e-01
4.744524554319342e-04	1.844013e+00	1.599349e-01
4.821254465033628e-04	1.796993e+00	1.122291e-01
4.897984375747913e-04	1.749465e+00	6.398907e-02
5.044468750747914e-04	1.658996e+00	-2.790310e-02
5.107247768605057e-04	1.620127e+00	-6.740992e-02
5.170026786462200e-04	1.581527e+00	-1.066604e-01
5.232805804319343e-04	1.543197e+00	-1.456546e-01
5.295584822176485e-04	1.505137e+00	-1.843924e-01
5.358363840033628e-04	1.467346e+00	-2.228738e-01
5.421142857890771e-04	1.429826e+00	-2.610989e-01
5.483921875747914e-04	1.392575e+00	-2.990677e-01
5.602504465033628e-04	1.322978e+00	-3.700724e-01
5.721087054319343e-04	1.256339e+00	-4.381280e-01
5.839669643605057e-04	1.192657e+00	-5.032344e-01
5.958252232890771e-04	1.131933e+00	-5.653918e-01
6.076834822176487e-04	1.074167e+00	-6.246000e-01
6.195417411462201e-04	1.019358e+00	-6.808592e-01
6.314000000747915e-04	9.675069e-01	-7.341692e-01
6.530238840033629e-04	8.832545e-01	-8.211596e-01
6.746477679319344e-04	8.158888e-01	-8.907560e-01
6.962716518605058e-04	7.654098e-01	-9.429585e-01
7.178955357890772e-04	7.318174e-01	-9.777672e-01
7.395194197176488e-04	7.151117e-01	-9.951820e-01
7.611433036462202e-04	7.152926e-01	-9.952028e-01
7.827671875747916e-04	7.323602e-01	-9.778298e-01
7.988107143605059e-04	7.582598e-01	-9.510698e-01
8.148542411462202e-04	7.924912e-01	-9.158043e-01
8.308977679319346e-04	8.350544e-01	-8.720331e-01
8.469412947176489e-04	8.859495e-01	-8.197563e-01
8.629848215033632e-04	9.451765e-01	-7.589740e-01
8.790283482890775e-04	1.012735e+00	-6.896861e-01
8.950718750747917e-04	1.088626e+00	-6.118925e-01
9.055350447176488e-04	1.141254e+00	-5.580654e-01
9.159982143605060e-04	1.195679e+00	-5.024507e-01
9.264613840033631e-04	1.251903e+00	-4.450485e-01
9.369245536462203e-04	1.309924e+00	-3.858588e-01
9.473877232890774e-04	1.369743e+00	-3.248815e-01
9.578508929319347e-04	1.431360e+00	-2.621168e-01
9.683140625747918e-04	1.494774e+00	-1.975645e-01
9.724993304319346e-04	1.520190e+00	-1.717044e-01
9.766845982890774e-04	1.545685e+00	-1.457706e-01
9.808698661462202e-04	1.571258e+00	-1.197631e-01
9.850551340033630e-04	1.596909e+00	-9.368186e-02
9.892404018605058e-04	1.622638e+00	-6.752686e-02
9.934256697176486e-04	1.648446e+00	-4.129811e-02
9.976109375747914e-04	1.674332e+00	-1.499562e-02
1.012259375074791e-03	1.764778e+00	7.686739e-02
1.019932366146220e-03	1.812242e+00	1.250478e-01
1.027605357217648e-03	1.859161e+00	1.726649e-01
1.035278348289076e-03	1.905536e+00	2.197187e-01
1.042951339360505e-03	1.951367e+00	2.662090e-01
1.050624330431933e-03	1.996654e+00	3.121360e-01
1.058297321503361e-03	2.041397e+00	3.574996e-01
1.065970312574790e-03	2.085596e+00	4.022999e-01
1.080618750074790e-03	2.166838e+00	4.846320e-01
1.090384375074789e-03	2.218804e+00	5.372826e-01
1.100150000074789e-03	2.268781e+00	5.879110e-01
1.105032812574789e-03	2.292964e+00	6.124070e-01
1.109915625074789e-03	2.316579e+00	6.363266e-01
1.114798437574789e-03	2.339604e+00	6.596473e-01
1.119681250074789e-03	2.362016e+00	6.823472e-01
1.124564062574789e-03	2.383795e+00	7.044048e-01
1.129446875074789e-03	2.404920e+00	7.257996e-01
1.134329687574788e-03	2.425371e+00	7.465112e-01
1.144095312574788e-03	2.464171e+00	7.858078e-01
1.153860937574788e-03	2.500049e+00	8.221468e-01
1.163626562574788e-03	2.532868e+00	8.553915e-01
1.173392187574788e-03	2.562503e+00	8.854167e-01
1.183157812574787e-03	2.588842e+00	9.121093e-01
1.192923437574787e-03	2.611784e+00	9.353690e-01
1.202689062574787e-03	2.631242e+00	9.551083e-01
1.212454687574787e-03	2.647142e+00	9.712527e-01
1.222220312574787e-03	2.659423e+00	9.837415e-01
1.236868750074786e-03	2.670962e+00	9.955215e-01
1.251517187574786e-03	2.674158e+00	9.988744e-01
1.266165625074786e-03	2.668985e+00	9.937717e-01
1.280814062574785e-03	2.655487e+00	9.802565e-01
1.290579687574785e-03	2.641917e+00	9.666265e-01
1.300345312574785e-03	2.624748e+00	9.493582e-01
1.310110937574785e-03	2.604046e+00	9.285169e-01
1.319876562574784e-03	2.579889e+00	9.041808e-01
1.329642187574784e-03	2.552370e+00	8.764415e-01
1.339407812574784e-03	2.521592e+00	8.454036e-01
1.349173437574784e-03	2.487674e+00	8.111838e-01
1.358939062574784e-03	2.450744e+00	7.739108e-01
1.363821875074784e-03	2.431193e+00	7.541728e-01
1.368704687574783e-03	2.410943e+00	7.337251e-01
1.373587500074783e-03	2.390012e+00	7.125867e-01
1.378470312574783e-03	2.368421e+00	6.907777e-01
1.383353125074783e-03	2.346191e+00	6.683185e-01
1.388235937574783e-03	2.323342e+00	6.452304e-01
1.393118750074783e-03	2.299896e+00	6.215350e-01
1.398001562574783e-03	2.275877e+00	5.972546e-01
1.402884375074783e-03	2.251305e+00	5.724121e-01
1.412650000074783e-03	2.200601e+00	5.211349e-01
1.427298437574782e-03	2.121009e+00	4.406035e-01
1.435668973289068e-03	2.073505e+00	3.925192e-01
1.444039509003353e-03	2.025289e+00	3.436931e-01
1.452410044717639e-03	1.976362e+00	2.941250e-01
1.460780580431924e-03	1.926723e+00	2.438151e-01
1.469151116146210e-03	1.876373e+00	1.927634e-01
1.477521651860495e-03	1.825310e+00	1.409697e-01
1.485892187574781e-03	1.773537e+00	8.843423e-02
1.500540625074781e-03	1.683114e+00	-3.389470e-03
1.505423437574781e-03	1.652888e+00	-3.410117e-02
1.510306250074780e-03	1.622775e+00	-6.470904e-02
1.515189062574780e-03	1.592775e+00	-9.521310e-02
1.520071875074780e-03	1.562887e+00	-1.256133e-01
1.524954687574780e-03	1.533112e+00	-1.559098e-01
1.529837500074780e-03	1.503448e+00	-1.861024e-01
1.534720312574780e-03	1.473898e+00	-2.161912e-01
1.545183482217637e-03	1.410841e+00	-2.804388e-01
1.555646651860494e-03	1.349665e+00	-3.428248e-01
1.566109821503351e-03	1.290369e+00	-4.033492e-01
1.576572991146208e-03	1.232954e+00	-4.620119e-01
1.587036160789065e-03	1.177419e+00	-5.188129e-01
1.597499330431921e-03	1.123764e+00	-5.737523e-01
1.607962500074778e-03	1.071990e+00	-6.268301e-01
1.625401116146207e-03	9.912570e-01	-7.098452e-01
1.642839732217635e-03	9.206326e-01	-7.825336e-01
1.660278348289063e-03	8.601171e-01	-8.448952e-01
1.677716964360491e-03	8.097107e-01	-8.969301e-01
1.695155580431919e-03	7.694132e-01	-9.386382e-01
1.712594196503348e-03	7.392248e-01	-9.700196e-01
1.730032812574776e-03	7.191453e-01	-9.910743e-01
1.744681250074775e-03	7.122280e-01	-9.983678e-01
1.759329687574775e-03	7.134632e-01	-9.972100e-01
1.773978125074775e-03	7.228418e-01	-9.876106e-01
1.790719196503346e-03	7.446183e-01	-9.651027e-01
1.807460267931917e-03	7.756608e-01	-9.331201e-01
1.824201339360488e-03	8.159694e-01	-8.916627e-01
1.840942410789059e-03	8.655440e-01	-8.407306e-01
1.857683482217630e-03	9.243847e-01	-7.803237e-01
1.874424553646201e-03	9.924914e-01	-7.104420e-01
1.891165625074772e-03	1.069864e+00	-6.310856e-01
1.901628794717629e-03	1.121526e+00	-5.782270e-01
1.912091964360486e-03	1.175080e+00	-5.234855e-01
1.922555134003343e-03	1.230524e+00	-4.668612e-01
1.933018303646200e-03	1.287859e+00	-4.083540e-01
1.943481473289057e-03	1.347086e+00	-3.479640e-01
1.953944642931914e-03	1.408203e+00	-2.856912e-01
1.964407812574771e-03	1.471212e+00	-2.215355e-01
1.969290625074771e-03	1.500745e+00	-1.914811e-01
1.974173437574771e-03	1.530392e+00	-1.613177e-01
1.979056250074771e-03	1.560155e+00	-1.310454e-01
1.983939062574771e-03	1.590033e+00	-1.006641e-01
1.988821875074770e-03	1.620025e+00	-7.017392e-02
1.993704687574770e-03	1.650133e+00	-3.957480e-02
1.998587500074770e-03	1.680356e+00	-8.866750e-03
2.002772767931913e-03	1.706258e+00	1.744600e-02
2.006958035789056e-03	1.732109e+00	4.370141e-02
2.011143303646198e-03	1.757907e+00	6.989949e-02
2.015328571503341e-03	1.783654e+00	9.604022e-02
2.019513839360484e-03	1.809349e+00	1.221236e-01
2.023699107217627e-03	1.834991e+00	1.481497e-01
2.027884375074770e-03	1.860582e+00	1.741184e-01
2.036952455431912e-03	1.915945e+00	2.302821e-01
2.046020535789055e-03	1.970154e+00	2.852637e-01
2.055088616146197e-03	2.023208e+00	3.390631e-01
2.064156696503340e-03	2.075109e+00	3.916804e-01
2.073224776860483e-03	2.125855e+00	4.431156e-01
2.082292857217626e-03	2.175447e+00	4.933687e-01
2.091360937574768e-03	2.223885e+00	5.424396e-01
2.101126562574768e-03	2.273653e+00	5.928552e-01
2.106009375074768e-03	2.297724e+00	6.172377e-01
2.110892187574768e-03	2.321223e+00	6.410394e-01
2.115775000074768e-03	2.344127e+00	6.642376e-01
2.120657812574768e-03	2.366415e+00	6.868107e-01
2.125540625074768e-03	2.388065e+00	7.087375e-01
2.130423437574767e-03	2.409056e+00	7.299972e-01
2.135306250074767e-03	2.429369e+00	7.505698e-01
2.145071875074767e-03	2.467884e+00	7.895771e-01
2.154837500074767e-03	2.503462e+00	8.256127e-01
2.164603125074767e-03	2.535969e+00	8.585408e-01
2.174368750074766e-03	2.565279e+00	8.882377e-01
2.184134375074766e-03	2.591282e+00	9.145914e-01
2.193900000074766e-03	2.613879e+00	9.375027e-01
2.203665625074766e-03	2.632985e+00	9.568856e-01
2.213431250074766e-03	2.648525e+00	9.726670e-01
2.223196875074765e-03	2.660442e+00	9.847874e-01
2.237845312574765e-03	2.671427e+00	9.960080e-01
2.252493750074765e-03	2.674065e+00	9.987972e-01
2.267142187574765e-03	2.668335e+00	9.931315e-01
2.281790625074764e-03	2.654285e+00	9.790588e-01
2.291556250074764e-03	2.640352e+00	9.650624e-01
2.301321875074764e-03	2.622827e+00	9.474337e-01
2.311087500074764e-03	2.601775e+00	9.262391e-01
2.320853125074763e-03	2.577278e+00	9.015583e-01
2.330618750074763e-03	2.549428e+00	8.734844e-01
2.340384375074763e-03	2.518331e+00	8.421228e-01
2.350150000074763e-03	2.484106e+00	8.075917e-01
2.359915625074763e-03	2.446882e+00	7.700209e-01
2.364798437574762e-03	2.427190e+00	7.501395e-01
2.369681250074762e-03	2.406802e+00	7.295520e-01
2.374564062574762e-03	2.385737e+00	7.082779e-01
2.379446875074762e-03	2.364017e+00	6.863372e-01
2.384329687574762e-03	2.341661e+00	6.637506e-01
2.389212500074762e-03	2.318691e+00	6.405392e-01
2.394095312574762e-03	2.295129e+00	6.167250e-01
2.398978125074762e-03	2.270997e+00	5.923303e-01
2.408743750074761e-03	2.221115e+00	5.418921e-01
2.418509375074761e-03	2.169236e+00	4.894143e-01
2.433157812574761e-03	2.088107e+00	4.073073e-01
2.440830803646189e-03	2.043958e+00	3.626086e-01
2.448503794717618e-03	1.999260e+00	3.173343e-01
2.456176785789046e-03	1.954011e+00	2.714842e-01
2.463849776860475e-03	1.908212e+00	2.250585e-01
2.471522767931903e-03	1.861862e+00	1.780571e-01
2.479195759003332e-03	1.814962e+00	1.304801e-01
2.486868750074760e-03	1.767512e+00	8.232737e-02
2.491054017931902e-03	1.741655e+00	5.607744e-02
2.495239285789045e-03	1.715812e+00	2.983408e-02
2.499424553646188e-03	1.689982e+00	3.597296e-03
2.503609821503331e-03	1.664166e+00	-2.263292e-02
2.507795089360474e-03	1.638363e+00	-4.885656e-02
2.511980357217617e-03	1.612573e+00	-7.507362e-02
2.516165625074759e-03	1.586797e+00	-1.012841e-01
2.524536160789045e-03	1.535237e+00	-1.537363e-01
2.532906696503330e-03	1.484472e+00	-2.054125e-01
2.541277232217616e-03	1.434504e+00	-2.563126e-01
2.549647767931901e-03	1.385332e+00	-3.064366e-01
2.558018303646187e-03	1.336955e+00	-3.557846e-01
2.566388839360472e-03	1.289375e+00	-4.043566e-01
2.574759375074758e-03	1.242590e+00	-4.521524e-01
2.588710267931900e-03	1.166872e+00	-5.296325e-01
2.602661160789043e-03	1.096442e+00	-6.017818e-01
2.616612053646186e-03	1.031301e+00	-6.686003e-01
2.630562946503328e-03	9.714479e-01	-7.300880e-01
2.644513839360471e-03	9.168833e-01	-7.862449e-01
2.658464732217614e-03	8.676070e-01	-8.370710e-01
2.672415625074756e-03	8.236192e-01	-8.825663e-01
2.698922321503327e-03	7.607808e-01	-9.476957e-01
2.725429017931897e-03	7.238002e-01	-9.861252e-01
2.751935714360468e-03	7.126775e-01	-9.978548e-01
2.778442410789039e-03	7.274126e-01	-9.828845e-01
2.804949107217610e-03	7.680055e-01	-9.412143e-01
2.831455803646181e-03	8.344563e-01	-8.728442e-01
2.857962500074752e-03	9.267650e-01	-7.777742e-01
2.869820759003323e-03	9.751144e-01	-7.281466e-01
2.881679017931894e-03	1.026704e+00	-6.752657e-01
2.893537276860465e-03	1.081533e+00	-6.191313e-01
2.905395535789037e-03	1.139602e+00	-5.597437e-01
2.917253794717608e-03	1.200910e+00	-4.971026e-01
2.929112053646179e-03	1.265459e+00	-4.312082e-01
2.940970312574750e-03	1.333247e+00	-3.620604e-01
2.947945759003322e-03	1.373813e+00	-3.207178e-01
2.954921205431893e-03	1.414802e+00	-2.789621e-01
2.961896651860464e-03	1.456215e+00	-2.367933e-01
2.968872098289035e-03	1.498052e+00	-1.942114e-01
2.975847544717607e-03	1.540312e+00	-1.512163e-01
2.982822991146178e-03	1.582997e+00	-1.078081e-01
2.989798437574749e-03	1.626105e+00	-6.398683e-02
2.999564062574749e-03	1.686381e+00	-2.737544e-03
3.004446875074749e-03	1.716618e+00	2.797714e-02
3.009329687574749e-03	1.746766e+00	5.859371e-02
3.014212500074749e-03	1.776822e+00	8.911219e-02
3.019095312574748e-03	1.806788e+00	1.195326e-01
3.023978125074748e-03	1.836662e+00	1.498548e-01
3.028860937574748e-03	1.866447e+00	1.800790e-01
3.033743750074748e-03	1.896140e+00	2.102051e-01
3.042114285789034e-03	1.946800e+00	2.615888e-01
3.050484821503319e-03	1.996421e+00	3.119100e-01
3.058855357217605e-03	2.045004e+00	3.611685e-01
3.067225892931890e-03	2.092547e+00	4.093644e-01
3.075596428646176e-03	2.139053e+00	4.564977e-01
3.083966964360461e-03	2.184519e+00	5.025683e-01
3.092337500074747e-03	2.228947e+00	5.475763e-01
3.097220312574747e-03	2.253991e+00	5.729463e-01
3.102103125074747e-03	2.278503e+00	5.977771e-01
3.106985937574747e-03	2.302462e+00	6.220453e-01
3.111868750074747e-03	2.325844e+00	6.457280e-01
3.116751562574746e-03	2.348626e+00	6.688030e-01
3.121634375074746e-03	2.370788e+00	6.912485e-01
3.126517187574746e-03	2.392308e+00	7.130435e-01
3.131400000074746e-03	2.413166e+00	7.341673e-01
3.141165625074746e-03	2.452814e+00	7.743229e-01
3.150931250074746e-03	2.489584e+00	8.115641e-01
3.160696875074745e-03	2.523334e+00	8.457507e-01
3.170462500074745e-03	2.553937e+00	8.767542e-01
3.180228125074745e-03	2.581276e+00	9.044577e-01
3.189993750074745e-03	2.605247e+00	9.287571e-01
3.199759375074745e-03	2.625758e+00	9.495609e-01
3.209525000074744e-03	2.642732e+00	9.667907e-01
3.219290625074744e-03	2.656105e+00	9.803818e-01
3.233939062574744e-03	2.669302e+00	9.938376e-01
3.248587500074744e-03	2.674172e+00	9.988804e-01
3.263235937574743e-03	2.670671e+00	9.954677e-01
3.277884375074743e-03	2.658831e+00	9.836281e-01
3.287650000074743e-03	2.646351e+00	9.711001e-01
3.297415625074743e-03	2.630256e+00	9.549171e-01
3.307181250074742e-03	2.610606e+00	9.351401e-01
3.316946875074742e-03	2.587476e+00	9.118434e-01
3.326712500074742e-03	2.560956e+00	8.851147e-01
3.336478125074742e-03	2.531144e+00	8.550547e-01
3.346243750074742e-03	2.498155e+00	8.217764e-01
3.356009375074741e-03	2.462114e+00	7.854052e-01
3.365775000074741e-03	2.423159e+00	7.460778e-01
3.370657812574741e-03	2.402634e+00	7.253515e-01
3.375540625074741e-03	2.381437e+00	7.039425e-01
3.380423437574741e-03	2.359588e+00	6.818709e-01
3.385306250074741e-03	2.337107e+00	6.591576e-01
3.390189062574741e-03	2.314017e+00	6.358239e-01
3.395071875074740e-03	2.290339e+00	6.118918e-01
3.399954687574740e-03	2.266096e+00	5.873838e-01
3.409720312574740e-03	2.216006e+00	5.367329e-01
3.419485937574740e-03	2.163938e+00	4.840619e-01
3.434134375074740e-03	2.082563e+00	4.017031e-01
3.441807366146168e-03	2.038304e+00	3.568908e-01
3.449480357217597e-03	1.993509e+00	3.115167e-01
3.457153348289025e-03	1.948177e+00	2.655806e-01
3.464826339360453e-03	1.902309e+00	2.190827e-01
3.472499330431881e-03	1.855904e+00	1.720228e-01
3.480172321503310e-03	1.808963e+00	1.244011e-01
3.487845312574738e-03	1.761485e+00	7.621741e-02
3.492030580431881e-03	1.735619e+00	4.995680e-02
3.496215848289024e-03	1.709771e+00	2.370700e-02
3.500401116146167e-03	1.683940e+00	-2.531994e-03
3.504586384003310e-03	1.658128e+00	-2.876018e-02
3.508771651860452e-03	1.632332e+00	-5.497756e-02
3.512956919717595e-03	1.606555e+00	-8.118413e-02
3.517142187574738e-03	1.580795e+00	-1.073799e-01
3.525512723289023e-03	1.529280e+00	-1.597894e-01
3.533883259003309e-03	1.478578e+00	-2.114067e-01
3.542253794717595e-03	1.428687e+00	-2.622317e-01
3.550624330431880e-03	1.379608e+00	-3.122645e-01
3.558994866146165e-03	1.331341e+00	-3.615051e-01
3.567365401860451e-03	1.283886e+00	-4.099533e-01
3.575735937574737e-03	1.237243e+00	-4.576094e-01
3.589686830431879e-03	1.161799e+00	-5.348172e-01
3.603637723289022e-03	1.091675e+00	-6.066611e-01
3.617588616146164e-03	1.026871e+00	-6.731410e-01
3.631539509003307e-03	9.673868e-01	-7.342569e-01
3.645490401860449e-03	9.132222e-01	-7.900088e-01
3.659441294717592e-03	8.643773e-01	-8.403967e-01
3.673392187574735e-03	8.208522e-01	-8.854206e-01
3.699898884003306e-03	7.589885e-01	-9.495421e-01
3.726405580431876e-03	7.229683e-01	-9.869799e-01
3.752912276860447e-03	7.127913e-01	-9.977340e-01
3.779418973289018e-03	7.284577e-01	-9.818044e-01
3.805925669717589e-03	7.699675e-01	-9.391911e-01
3.832432366146160e-03	8.373205e-01	-8.698941e-01
3.858939062574731e-03	9.305170e-01	-7.739134e-01
3.870797321503302e-03	9.792098e-01	-7.239383e-01
3.882655580431873e-03	1.031116e+00	-6.707371e-01
