time	V(emisor)	V(n002)
0.000000000000000e+00	1.689096e+00	0.000000e+00
4.882812557061023e-11	1.689098e+00	3.067962e-07
9.765625114122045e-11	1.689100e+00	6.135923e-07
1.953125022824409e-10	1.689103e+00	1.227185e-06
3.906250045648818e-10	1.689106e+00	2.454369e-06
7.812500091297636e-10	1.689108e+00	4.908738e-06
1.562500018259527e-09	1.689110e+00	9.817477e-06
3.125000036519054e-09	1.689118e+00	1.963495e-05
6.250000073038109e-09	1.689136e+00	3.926991e-05
1.250000014607622e-08	1.689175e+00	7.853982e-05
4.412723225095356e-06	1.716411e+00	2.777245e-02
8.812946450044637e-06	1.743579e+00	5.539337e-02
1.321316967499392e-05	1.770681e+00	8.294130e-02
1.761339289994320e-05	1.797715e+00	1.104162e-01
2.201361612489248e-05	1.824682e+00	1.378182e-01
2.641383934984176e-05	1.851581e+00	1.651472e-01
3.081406257479102e-05	1.878413e+00	1.924032e-01
3.918459828907674e-05	1.929287e+00	2.440646e-01
4.755513400336246e-05	1.979169e+00	2.947094e-01
5.592566971764818e-05	2.028059e+00	3.443373e-01
6.429620543193390e-05	2.075958e+00	3.929485e-01
7.266674114621962e-05	2.122864e+00	4.405430e-01
8.103727686050534e-05	2.168779e+00	4.871206e-01
8.940781257479103e-05	2.213702e+00	5.326815e-01
9.917343757479104e-05	2.263886e+00	5.835758e-01
1.040562500747910e-04	2.288180e+00	6.082109e-01
1.089390625747910e-04	2.311911e+00	6.322736e-01
1.138218750747911e-04	2.335056e+00	6.557412e-01
1.187046875747911e-04	2.357593e+00	6.785917e-01
1.235875000747910e-04	2.379500e+00	7.008035e-01
1.284703125747911e-04	2.400757e+00	7.223557e-01
1.333531250747911e-04	2.421344e+00	7.432280e-01
1.431187500747911e-04	2.460429e+00	7.828553e-01
1.528843750747911e-04	2.496605e+00	8.195360e-01
1.626500000747911e-04	2.529736e+00	8.531322e-01
1.724156250747911e-04	2.559695e+00	8.835174e-01
1.821812500747911e-04	2.586368e+00	9.105773e-01
1.919468750747911e-04	2.609654e+00	9.342099e-01
2.017125000747911e-04	2.629464e+00	9.543264e-01
2.114781250747911e-04	2.645722e+00	9.708510e-01
2.212437500747911e-04	2.658368e+00	9.837216e-01
2.358921875747911e-04	2.670460e+00	9.960738e-01
2.505406250747911e-04	2.674214e+00	9.999942e-01
2.651890625747911e-04	2.669599e+00	9.954495e-01
2.798375000747912e-04	2.656652e+00	9.824781e-01
2.896031250747912e-04	2.643445e+00	9.692003e-01
2.993687500747912e-04	2.626634e+00	9.522747e-01
3.091343750747912e-04	2.606282e+00	9.317649e-01
3.189000000747912e-04	2.582466e+00	9.077482e-01
3.286656250747912e-04	2.555279e+00	8.803149e-01
3.384312500747912e-04	2.524822e+00	8.495683e-01
3.481968750747912e-04	2.491212e+00	8.156242e-01
3.579625000747912e-04	2.454577e+00	7.786102e-01
3.677281250747912e-04	2.415056e+00	7.386657e-01
3.726109375747912e-04	2.394260e+00	7.176411e-01
3.774937500747912e-04	2.372800e+00	6.959410e-01
3.823765625747912e-04	2.350696e+00	6.735860e-01
3.872593750747913e-04	2.327969e+00	6.505970e-01
3.921421875747913e-04	2.304641e+00	6.269956e-01
3.970250000747913e-04	2.280734e+00	6.028042e-01
4.019078125747913e-04	2.256271e+00	5.780454e-01
4.116734375747913e-04	2.205770e+00	5.269197e-01
4.214390625747913e-04	2.153330e+00	4.738106e-01
4.360875000747913e-04	2.071473e+00	3.908677e-01
4.437604911462199e-04	2.026999e+00	3.457846e-01
4.514334822176485e-04	1.982016e+00	3.001667e-01
4.591064732890770e-04	1.936524e+00	2.540139e-01
4.667794643605056e-04	1.890523e+00	2.073263e-01
4.744524554319342e-04	1.844013e+00	1.601039e-01
4.821254465033628e-04	1.796993e+00	1.123466e-01
4.897984375747913e-04	1.749465e+00	6.405442e-02
5.044468750747914e-04	1.658996e+00	-2.793691e-02
5.107247768605057e-04	1.620127e+00	-6.748633e-02
5.170026786462200e-04	1.581527e+00	-1.067791e-01
5.232805804319343e-04	1.543197e+00	-1.458153e-01
5.295584822176485e-04	1.505137e+00	-1.845948e-01
5.358363840033628e-04	1.467346e+00	-2.231177e-01
5.421142857890771e-04	1.429826e+00	-2.613840e-01
5.483921875747914e-04	1.392575e+00	-2.993937e-01
5.602504465033628e-04	1.322978e+00	-3.704746e-01
5.721087054319343e-04	1.256339e+00	-4.386033e-01
5.839669643605057e-04	1.192657e+00	-5.037797e-01
5.958252232890771e-04	1.131933e+00	-5.660037e-01
6.076834822176487e-04	1.074167e+00	-6.252754e-01
6.195417411462201e-04	1.019358e+00	-6.815948e-01
6.314000000747915e-04	9.675069e-01	-7.349619e-01
6.530238840033629e-04	8.832545e-01	-8.220451e-01
6.746477679319344e-04	8.158888e-01	-8.917158e-01
6.962716518605058e-04	7.654098e-01	-9.439739e-01
7.178955357890772e-04	7.318174e-01	-9.788195e-01
7.395194197176488e-04	7.151117e-01	-9.962525e-01
7.611433036462202e-04	7.152926e-01	-9.962730e-01
7.827671875747916e-04	7.323602e-01	-9.788810e-01
7.988107143605059e-04	7.582598e-01	-9.520922e-01
8.148542411462202e-04	7.924912e-01	-9.167887e-01
8.308977679319346e-04	8.350544e-01	-8.729704e-01
8.469412947176489e-04	8.859495e-01	-8.206374e-01
8.629848215033632e-04	9.451765e-01	-7.597897e-01
8.790283482890775e-04	1.012735e+00	-6.904273e-01
8.950718750747917e-04	1.088626e+00	-6.125501e-01
9.055350447176488e-04	1.141254e+00	-5.586651e-01
9.159982143605060e-04	1.195679e+00	-5.029906e-01
9.264613840033631e-04	1.251903e+00	-4.455266e-01
9.369245536462203e-04	1.309924e+00	-3.862732e-01
9.473877232890774e-04	1.369743e+00	-3.252303e-01
9.578508929319347e-04	1.431360e+00	-2.623979e-01
9.683140625747918e-04	1.494774e+00	-1.977760e-01
9.724993304319346e-04	1.520190e+00	-1.718881e-01
9.766845982890774e-04	1.545685e+00	-1.459264e-01
9.808698661462202e-04	1.571258e+00	-1.198908e-01
9.850551340033630e-04	1.596909e+00	-9.378146e-02
9.892404018605058e-04	1.622638e+00	-6.759825e-02
9.934256697176486e-04	1.648446e+00	-4.134122e-02
9.976109375747914e-04	1.674332e+00	-1.501036e-02
1.012259375074791e-03	1.764778e+00	7.695178e-02
1.019932366146220e-03	1.812242e+00	1.251842e-01
1.027605357217648e-03	1.859161e+00	1.728527e-01
1.035278348289076e-03	1.905536e+00	2.199572e-01
1.042951339360505e-03	1.951367e+00	2.664978e-01
1.050624330431933e-03	1.996654e+00	3.124744e-01
1.058297321503361e-03	2.041397e+00	3.578870e-01
1.065970312574790e-03	2.085596e+00	4.027357e-01
1.080618750074790e-03	2.166838e+00	4.851569e-01
1.090384375074789e-03	2.218804e+00	5.378644e-01
1.100150000074789e-03	2.268781e+00	5.885475e-01
1.105032812574789e-03	2.292964e+00	6.130700e-01
1.109915625074789e-03	2.316579e+00	6.370154e-01
1.114798437574789e-03	2.339604e+00	6.603613e-01
1.119681250074789e-03	2.362016e+00	6.830858e-01
1.124564062574789e-03	2.383795e+00	7.051673e-01
1.129446875074789e-03	2.404920e+00	7.265851e-01
1.134329687574788e-03	2.425371e+00	7.473192e-01
1.144095312574788e-03	2.464171e+00	7.866583e-01
1.153860937574788e-03	2.500049e+00	8.230366e-01
1.163626562574788e-03	2.532868e+00	8.563172e-01
1.173392187574788e-03	2.562503e+00	8.863748e-01
1.183157812574787e-03	2.588842e+00	9.130964e-01
1.192923437574787e-03	2.611784e+00	9.363812e-01
1.202689062574787e-03	2.631242e+00	9.561417e-01
1.212454687574787e-03	2.647142e+00	9.723034e-01
1.222220312574787e-03	2.659423e+00	9.848056e-01
1.236868750074786e-03	2.670962e+00	9.965983e-01
1.251517187574786e-03	2.674158e+00	9.999546e-01
1.266165625074786e-03	2.668985e+00	9.948460e-01
1.280814062574785e-03	2.655487e+00	9.813160e-01
1.290579687574785e-03	2.641917e+00	9.676709e-01
1.300345312574785e-03	2.624748e+00	9.503838e-01
1.310110937574785e-03	2.604046e+00	9.295197e-01
1.319876562574784e-03	2.579889e+00	9.051570e-01
1.329642187574784e-03	2.552370e+00	8.773875e-01
1.339407812574784e-03	2.521592e+00	8.463158e-01
1.349173437574784e-03	2.487674e+00	8.120587e-01
1.358939062574784e-03	2.450744e+00	7.747452e-01
1.363821875074784e-03	2.431193e+00	7.549857e-01
1.368704687574783e-03	2.410943e+00	7.345157e-01
1.373587500074783e-03	2.390012e+00	7.133544e-01
1.378470312574783e-03	2.368421e+00	6.915217e-01
1.383353125074783e-03	2.346191e+00	6.690382e-01
1.388235937574783e-03	2.323342e+00	6.459250e-01
1.393118750074783e-03	2.299896e+00	6.222038e-01
1.398001562574783e-03	2.275877e+00	5.978971e-01
1.402884375074783e-03	2.251305e+00	5.730277e-01
1.412650000074783e-03	2.200601e+00	5.216947e-01
1.427298437574782e-03	2.121009e+00	4.410761e-01
1.435668973289068e-03	2.073505e+00	3.929398e-01
1.444039509003353e-03	2.025289e+00	3.440608e-01
1.452410044717639e-03	1.976362e+00	2.944391e-01
1.460780580431924e-03	1.926723e+00	2.440748e-01
1.469151116146210e-03	1.876373e+00	1.929678e-01
1.477521651860495e-03	1.825310e+00	1.411182e-01
1.485892187574781e-03	1.773537e+00	8.852597e-02
1.500540625074781e-03	1.683114e+00	-3.396841e-03
1.505423437574781e-03	1.652888e+00	-3.414167e-02
1.510306250074780e-03	1.622775e+00	-6.478256e-02
1.515189062574780e-03	1.592775e+00	-9.531951e-02
1.520071875074780e-03	1.562887e+00	-1.257525e-01
1.524954687574780e-03	1.533112e+00	-1.560816e-01
1.529837500074780e-03	1.503448e+00	-1.863067e-01
1.534720312574780e-03	1.473898e+00	-2.164279e-01
1.545183482217637e-03	1.410841e+00	-2.807447e-01
1.555646651860494e-03	1.349665e+00	-3.431978e-01
1.566109821503351e-03	1.290369e+00	-4.037872e-01
1.576572991146208e-03	1.232954e+00	-4.625129e-01
1.587036160789065e-03	1.177419e+00	-5.193749e-01
1.597499330431921e-03	1.123764e+00	-5.743733e-01
1.607962500074778e-03	1.071990e+00	-6.275079e-01
1.625401116146207e-03	9.912570e-01	-7.106118e-01
1.642839732217635e-03	9.206326e-01	-7.833779e-01
1.660278348289063e-03	8.601171e-01	-8.458061e-01
1.677716964360491e-03	8.097107e-01	-8.978965e-01
1.695155580431919e-03	7.694132e-01	-9.396490e-01
1.712594196503348e-03	7.392248e-01	-9.710637e-01
1.730032812574776e-03	7.191453e-01	-9.921405e-01
1.744681250074775e-03	7.122280e-01	-9.994416e-01
1.759329687574775e-03	7.134632e-01	-9.982823e-01
1.773978125074775e-03	7.228418e-01	-9.886724e-01
1.790719196503346e-03	7.446183e-01	-9.661402e-01
1.807460267931917e-03	7.756608e-01	-9.341232e-01
1.824201339360488e-03	8.159694e-01	-8.926212e-01
1.840942410789059e-03	8.655440e-01	-8.416342e-01
1.857683482217630e-03	9.243847e-01	-7.811624e-01
1.874424553646201e-03	9.924914e-01	-7.112056e-01
1.891165625074772e-03	1.069864e+00	-6.317638e-01
1.901628794717629e-03	1.121526e+00	-5.788484e-01
1.912091964360486e-03	1.175080e+00	-5.240480e-01
1.922555134003343e-03	1.230524e+00	-4.673628e-01
1.933018303646200e-03	1.287859e+00	-4.087927e-01
1.943481473289057e-03	1.347086e+00	-3.483377e-01
1.953944642931914e-03	1.408203e+00	-2.859978e-01
1.964407812574771e-03	1.471212e+00	-2.217729e-01
1.969290625074771e-03	1.500745e+00	-1.916861e-01
1.974173437574771e-03	1.530392e+00	-1.614902e-01
1.979056250074771e-03	1.560155e+00	-1.311852e-01
1.983939062574771e-03	1.590033e+00	-1.007712e-01
1.988821875074770e-03	1.620025e+00	-7.024818e-02
1.993704687574770e-03	1.650133e+00	-3.961606e-02
1.998587500074770e-03	1.680356e+00	-8.874882e-03
2.002772767931913e-03	1.706258e+00	1.746625e-02
2.006958035789056e-03	1.732109e+00	4.374999e-02
2.011143303646198e-03	1.757907e+00	6.997634e-02
2.015328571503341e-03	1.783654e+00	9.614528e-02
2.019513839360484e-03	1.809349e+00	1.222568e-01
2.023699107217627e-03	1.834991e+00	1.483110e-01
2.027884375074770e-03	1.860582e+00	1.743077e-01
2.036952455431912e-03	1.915945e+00	2.305321e-01
2.046020535789055e-03	1.970154e+00	2.855731e-01
2.055088616146197e-03	2.023208e+00	3.394306e-01
2.064156696503340e-03	2.075109e+00	3.921048e-01
2.073224776860483e-03	2.125855e+00	4.435956e-01
2.082292857217626e-03	2.175447e+00	4.939030e-01
2.091360937574768e-03	2.223885e+00	5.430270e-01
2.101126562574768e-03	2.273653e+00	5.934970e-01
2.106009375074768e-03	2.297724e+00	6.179059e-01
2.110892187574768e-03	2.321223e+00	6.417333e-01
2.115775000074768e-03	2.344127e+00	6.649566e-01
2.120657812574768e-03	2.366415e+00	6.875542e-01
2.125540625074768e-03	2.388065e+00	7.095046e-01
2.130423437574767e-03	2.409056e+00	7.307873e-01
2.135306250074767e-03	2.429369e+00	7.513822e-01
2.145071875074767e-03	2.467884e+00	7.904317e-01
2.154837500074767e-03	2.503462e+00	8.265063e-01
2.164603125074767e-03	2.535969e+00	8.594700e-01
2.174368750074766e-03	2.565279e+00	8.891989e-01
2.184134375074766e-03	2.591282e+00	9.155810e-01
2.193900000074766e-03	2.613879e+00	9.385172e-01
2.203665625074766e-03	2.632985e+00	9.579208e-01
2.213431250074766e-03	2.648525e+00	9.737192e-01
2.223196875074765e-03	2.660442e+00	9.858527e-01
2.237845312574765e-03	2.671427e+00	9.970852e-01
2.252493750074765e-03	2.674065e+00	9.998773e-01
2.267142187574765e-03	2.668335e+00	9.942052e-01
2.281790625074764e-03	2.654285e+00	9.801169e-01
2.291556250074764e-03	2.640352e+00	9.661052e-01
2.301321875074764e-03	2.622827e+00	9.484572e-01
2.311087500074764e-03	2.601775e+00	9.272394e-01
2.320853125074763e-03	2.577278e+00	9.025317e-01
2.330618750074763e-03	2.549428e+00	8.744271e-01
2.340384375074763e-03	2.518331e+00	8.430314e-01
2.350150000074763e-03	2.484106e+00	8.084627e-01
2.359915625074763e-03	2.446882e+00	7.708511e-01
2.364798437574762e-03	2.427190e+00	7.509480e-01
2.369681250074762e-03	2.406802e+00	7.303382e-01
2.374564062574762e-03	2.385737e+00	7.090409e-01
2.379446875074762e-03	2.364017e+00	6.870764e-01
2.384329687574762e-03	2.341661e+00	6.644652e-01
2.389212500074762e-03	2.318691e+00	6.412287e-01
2.394095312574762e-03	2.295129e+00	6.173886e-01
2.398978125074762e-03	2.270997e+00	5.929675e-01
2.408743750074761e-03	2.221115e+00	5.424745e-01
2.418509375074761e-03	2.169236e+00	4.899398e-01
2.433157812574761e-03	2.088107e+00	4.077439e-01
2.440830803646189e-03	2.043958e+00	3.629968e-01
2.448503794717618e-03	1.999260e+00	3.176734e-01
2.456176785789046e-03	1.954011e+00	2.717738e-01
2.463849776860475e-03	1.908212e+00	2.252979e-01
2.471522767931903e-03	1.861862e+00	1.782457e-01
2.479195759003332e-03	1.814962e+00	1.306172e-01
2.486868750074760e-03	1.767512e+00	8.241250e-02
2.491054017931902e-03	1.741655e+00	5.613423e-02
2.495239285789045e-03	1.715812e+00	2.986255e-02
2.499424553646188e-03	1.689982e+00	3.597456e-03
2.503609821503331e-03	1.664166e+00	-2.266105e-02
2.507795089360474e-03	1.638363e+00	-4.891298e-02
2.511980357217617e-03	1.612573e+00	-7.515831e-02
2.516165625074759e-03	1.586797e+00	-1.013971e-01
2.524536160789045e-03	1.535237e+00	-1.539058e-01
2.532906696503330e-03	1.484472e+00	-2.056376e-01
2.541277232217616e-03	1.434504e+00	-2.565925e-01
2.549647767931901e-03	1.385332e+00	-3.067705e-01
2.558018303646187e-03	1.336955e+00	-3.561715e-01
2.566388839360472e-03	1.289375e+00	-4.047957e-01
2.574759375074758e-03	1.242590e+00	-4.526429e-01
2.588710267931900e-03	1.166872e+00	-5.302061e-01
2.602661160789043e-03	1.096442e+00	-6.024327e-01
2.616612053646186e-03	1.031301e+00	-6.693228e-01
2.630562946503328e-03	9.714479e-01	-7.308763e-01
2.644513839360471e-03	9.168833e-01	-7.870933e-01
2.658464732217614e-03	8.676070e-01	-8.379736e-01
2.672415625074756e-03	8.236192e-01	-8.835174e-01
2.698922321503327e-03	7.607808e-01	-9.487161e-01
2.725429017931897e-03	7.238002e-01	-9.871863e-01
2.751935714360468e-03	7.126775e-01	-9.989280e-01
2.778442410789039e-03	7.274126e-01	-9.839412e-01
2.804949107217610e-03	7.680055e-01	-9.422260e-01
2.831455803646181e-03	8.344563e-01	-8.737823e-01
2.857962500074752e-03	9.267650e-01	-7.786102e-01
2.869820759003323e-03	9.751144e-01	-7.289293e-01
2.881679017931894e-03	1.026704e+00	-6.759915e-01
2.893537276860465e-03	1.081533e+00	-6.197968e-01
2.905395535789037e-03	1.139602e+00	-5.603452e-01
2.917253794717608e-03	1.200910e+00	-4.976368e-01
2.929112053646179e-03	1.265459e+00	-4.316714e-01
2.940970312574750e-03	1.333247e+00	-3.624492e-01
2.947945759003322e-03	1.373813e+00	-3.210621e-01
2.954921205431893e-03	1.414802e+00	-2.792614e-01
2.961896651860464e-03	1.456215e+00	-2.370472e-01
2.968872098289035e-03	1.498052e+00	-1.944194e-01
2.975847544717607e-03	1.540312e+00	-1.513780e-01
2.982822991146178e-03	1.582997e+00	-1.079230e-01
2.989798437574749e-03	1.626105e+00	-6.405442e-02
2.999564062574749e-03	1.686381e+00	-2.739072e-03
3.004446875074749e-03	1.716618e+00	2.800875e-02
3.009329687574749e-03	1.746766e+00	5.865836e-02
3.014212500074749e-03	1.776822e+00	8.920977e-02
3.019095312574748e-03	1.806788e+00	1.196630e-01
3.023978125074748e-03	1.836662e+00	1.500180e-01
3.028860937574748e-03	1.866447e+00	1.802748e-01
3.033743750074748e-03	1.896140e+00	2.104334e-01
3.042114285789034e-03	1.946800e+00	2.618727e-01
3.050484821503319e-03	1.996421e+00	3.122482e-01
3.058855357217605e-03	2.045004e+00	3.615599e-01
3.067225892931890e-03	2.092547e+00	4.098079e-01
3.075596428646176e-03	2.139053e+00	4.569921e-01
3.083966964360461e-03	2.184519e+00	5.031125e-01
3.092337500074747e-03	2.228947e+00	5.481691e-01
3.097220312574747e-03	2.253991e+00	5.735666e-01
3.102103125074747e-03	2.278503e+00	5.984243e-01
3.106985937574747e-03	2.302462e+00	6.227186e-01
3.111868750074747e-03	2.325844e+00	6.464270e-01
3.116751562574746e-03	2.348626e+00	6.695269e-01
3.121634375074746e-03	2.370788e+00	6.919967e-01
3.126517187574746e-03	2.392308e+00	7.138152e-01
3.131400000074746e-03	2.413166e+00	7.349619e-01
3.141165625074746e-03	2.452814e+00	7.751609e-01
3.150931250074746e-03	2.489584e+00	8.124424e-01
3.160696875074745e-03	2.523334e+00	8.466660e-01
3.170462500074745e-03	2.553937e+00	8.777030e-01
3.180228125074745e-03	2.581276e+00	9.054364e-01
3.189993750074745e-03	2.605247e+00	9.297620e-01
3.199759375074745e-03	2.625758e+00	9.505882e-01
3.209525000074744e-03	2.642732e+00	9.678366e-01
3.219290625074744e-03	2.656105e+00	9.814423e-01
3.233939062574744e-03	2.669302e+00	9.949125e-01
3.248587500074744e-03	2.674172e+00	9.999606e-01
3.263235937574743e-03	2.670671e+00	9.965439e-01
3.277884375074743e-03	2.658831e+00	9.846912e-01
3.287650000074743e-03	2.646351e+00	9.721495e-01
3.297415625074743e-03	2.630256e+00	9.559488e-01
3.307181250074742e-03	2.610606e+00	9.361501e-01
3.316946875074742e-03	2.587476e+00	9.128280e-01
3.326712500074742e-03	2.560956e+00	8.860701e-01
3.336478125074742e-03	2.531144e+00	8.559774e-01
3.346243750074742e-03	2.498155e+00	8.226628e-01
3.356009375074741e-03	2.462114e+00	7.862520e-01
3.365775000074741e-03	2.423159e+00	7.468820e-01
3.370657812574741e-03	2.402634e+00	7.261330e-01
3.375540625074741e-03	2.381437e+00	7.047008e-01
3.380423437574741e-03	2.359588e+00	6.826053e-01
3.385306250074741e-03	2.337107e+00	6.598673e-01
3.390189062574741e-03	2.314017e+00	6.365082e-01
3.395071875074740e-03	2.290339e+00	6.125501e-01
3.399954687574740e-03	2.266096e+00	5.880156e-01
3.409720312574740e-03	2.216006e+00	5.373097e-01
3.419485937574740e-03	2.163938e+00	4.845816e-01
3.434134375074740e-03	2.082563e+00	4.021336e-01
3.441807366146168e-03	2.038304e+00	3.572728e-01
3.449480357217597e-03	1.993509e+00	3.118495e-01
3.457153348289025e-03	1.948177e+00	2.658638e-01
3.464826339360453e-03	1.902309e+00	2.193155e-01
3.472499330431881e-03	1.855904e+00	1.722048e-01
3.480172321503310e-03	1.808963e+00	1.245316e-01
3.487845312574738e-03	1.761485e+00	7.629593e-02
3.492030580431881e-03	1.735619e+00	5.000698e-02
3.496215848289024e-03	1.709771e+00	2.372885e-02
3.500401116146167e-03	1.683940e+00	-2.538455e-03
3.504586384003310e-03	1.658128e+00	-2.879493e-02
3.508771651860452e-03	1.632332e+00	-5.504059e-02
3.512956919717595e-03	1.606555e+00	-8.127541e-02
3.517142187574738e-03	1.580795e+00	-1.074994e-01
3.525512723289023e-03	1.529280e+00	-1.599654e-01
3.533883259003309e-03	1.478578e+00	-2.116383e-01
3.542253794717595e-03	1.428687e+00	-2.625180e-01
3.550624330431880e-03	1.379608e+00	-3.126046e-01
3.558994866146165e-03	1.331341e+00	-3.618981e-01
3.567365401860451e-03	1.283886e+00	-4.103985e-01
3.575735937574737e-03	1.237243e+00	-4.581057e-01
3.589686830431879e-03	1.161799e+00	-5.353964e-01
3.603637723289022e-03	1.091675e+00	-6.073173e-01
3.617588616146164e-03	1.026871e+00	-6.738684e-01
3.631539509003307e-03	9.673868e-01	-7.350497e-01
3.645490401860449e-03	9.132222e-01	-7.908612e-01
3.659441294717592e-03	8.643773e-01	-8.413029e-01
3.673392187574735e-03	8.208522e-01	-8.863748e-01
3.699898884003306e-03	7.589885e-01	-9.505645e-01
3.726405580431876e-03	7.229683e-01	-9.880419e-01
3.752912276860447e-03	7.127913e-01	-9.988071e-01
3.779418973289018e-03	7.284577e-01	-9.828600e-01
3.805925669717589e-03	7.699675e-01	-9.402007e-01
3.832432366146160e-03	8.373205e-01	-8.708291e-01
3.858939062574731e-03	9.305170e-01	-7.747452e-01
3.870797321503302e-03	9.792098e-01	-7.247164e-01
3.882655580431873e-03	1.031116e+00	-6.714580e-01
