time	V(emisor)	V(vb)
0.000000000000000e+00	0.000000e+00	0.000000e+00
4.402008939255862e-06	2.724920e-02	2.768167e-02
8.804017878511725e-06	5.442570e-02	5.528949e-02
1.320602681776759e-05	8.152951e-02	8.282346e-02
1.760803575702345e-05	1.085606e-01	1.102836e-01
2.201004469627931e-05	1.355191e-01	1.376699e-01
2.641205363553517e-05	1.624048e-01	1.649823e-01
3.081406257479102e-05	1.892178e-01	1.922209e-01
4.057968757479103e-05	2.485586e-01	2.525034e-01
5.034531257479104e-05	3.064320e-01	3.112953e-01
6.011093757479104e-05	3.628380e-01	3.685966e-01
6.987656257479104e-05	4.177766e-01	4.244072e-01
7.964218757479103e-05	4.712479e-01	4.787271e-01
8.940781257479104e-05	5.232519e-01	5.315564e-01
9.917343757479104e-05	5.737884e-01	5.828950e-01
1.152169643605053e-04	6.526798e-01	6.630385e-01
1.312604911462196e-04	7.233859e-01	7.348667e-01
1.473040179319339e-04	7.859067e-01	7.983798e-01
1.633475447176483e-04	8.402423e-01	8.535778e-01
1.793910715033625e-04	8.863927e-01	9.004606e-01
1.954345982890768e-04	9.243577e-01	9.390282e-01
2.114781250747911e-04	9.541376e-01	9.692807e-01
2.331020090033626e-04	9.760935e-01	9.915850e-01
2.547258929319340e-04	9.807676e-01	9.963333e-01
2.763497768605055e-04	9.681600e-01	9.835256e-01
2.979736607890769e-04	9.382705e-01	9.531618e-01
3.195975447176484e-04	8.910993e-01	9.052419e-01
3.412214286462198e-04	8.266463e-01	8.397660e-01
3.628453125747912e-04	7.449115e-01	7.567340e-01
3.747035715033627e-04	6.943029e-01	7.053222e-01
3.865618304319341e-04	6.406313e-01	6.507987e-01
3.984200893605056e-04	5.838965e-01	5.931635e-01
4.102783482890770e-04	5.240987e-01	5.324166e-01
4.221366072176484e-04	4.612378e-01	4.685580e-01
4.339948661462199e-04	3.953138e-01	4.015878e-01
4.458531250747913e-04	3.263267e-01	3.315058e-01
4.521310268605056e-04	2.893496e-01	2.939418e-01
4.584089286462199e-04	2.520672e-01	2.560678e-01
4.646868304319342e-04	2.144797e-01	2.178837e-01
4.709647322176485e-04	1.765869e-01	1.793895e-01
4.772426340033628e-04	1.383888e-01	1.405852e-01
4.835205357890770e-04	9.988558e-02	1.014709e-01
4.897984375747913e-04	6.107707e-02	6.204643e-02
4.995640625747914e-04	7.691503e-04	7.813573e-04
5.044468750747914e-04	-2.947210e-02	-2.993985e-02
5.093296875747914e-04	-5.961586e-02	-6.056202e-02
5.142125000747914e-04	-8.966214e-02	-9.108516e-02
5.190953125747914e-04	-1.196109e-01	-1.215093e-01
5.239781250747914e-04	-1.494622e-01	-1.518343e-01
5.288609375747914e-04	-1.792160e-01	-1.820604e-01
5.337437500747914e-04	-2.088724e-01	-2.121874e-01
5.442069197176485e-04	-2.722138e-01	-2.765341e-01
5.546700893605057e-04	-3.337419e-01	-3.390387e-01
5.651332590033628e-04	-3.934566e-01	-3.997012e-01
5.755964286462200e-04	-4.513580e-01	-4.585215e-01
5.860595982890771e-04	-5.074461e-01	-5.154998e-01
5.965227679319343e-04	-5.617208e-01	-5.706359e-01
6.069859375747914e-04	-6.141822e-01	-6.239299e-01
6.237270090033629e-04	-6.930758e-01	-7.040756e-01
6.404680804319344e-04	-7.626977e-01	-7.748024e-01
6.572091518605058e-04	-8.230480e-01	-8.361105e-01
6.739502232890772e-04	-8.741266e-01	-8.879998e-01
6.906912947176487e-04	-9.159336e-01	-9.304703e-01
7.074323661462201e-04	-9.484690e-01	-9.635221e-01
7.241734375747916e-04	-9.717327e-01	-9.871551e-01
7.450997768605059e-04	-9.827544e-01	-9.983517e-01
7.660261161462202e-04	-9.778519e-01	-9.933713e-01
7.869524554319345e-04	-9.570251e-01	-9.722140e-01
8.078787947176488e-04	-9.202741e-01	-9.348798e-01
8.288051340033630e-04	-8.675990e-01	-8.813686e-01
8.497314732890775e-04	-7.989996e-01	-8.116805e-01
8.706578125747917e-04	-7.144760e-01	-7.258154e-01
8.818185268605060e-04	-6.645932e-01	-6.751409e-01
8.929792411462203e-04	-6.121305e-01	-6.218456e-01
9.041399554319346e-04	-5.570879e-01	-5.659294e-01
9.153006697176489e-04	-4.994655e-01	-5.073925e-01
9.264613840033631e-04	-4.392632e-01	-4.462347e-01
9.376220982890774e-04	-3.764810e-01	-3.824561e-01
9.487828125747918e-04	-3.111190e-01	-3.160568e-01
9.550607143605060e-04	-2.739232e-01	-2.782706e-01
9.613386161462203e-04	-2.364498e-01	-2.402025e-01
9.676165179319345e-04	-1.986987e-01	-2.018523e-01
9.738944197176488e-04	-1.606700e-01	-1.632200e-01
9.801723215033631e-04	-1.223637e-01	-1.243057e-01
9.864502232890772e-04	-8.377973e-02	-8.510939e-02
9.927281250747915e-04	-4.491812e-02	-4.563102e-02
9.962158482890772e-04	-2.335167e-02	-2.372228e-02
9.997035715033627e-04	-1.800311e-03	-1.828883e-03
1.003191294717648e-03	1.973595e-02	2.004918e-02
1.006679017931934e-03	4.125711e-02	4.191190e-02
1.010166741146220e-03	6.276318e-02	6.375929e-02
1.013654464360505e-03	8.425414e-02	8.559134e-02
1.017142187574791e-03	1.057300e-01	1.074080e-01
1.025512723289077e-03	1.573255e-01	1.598224e-01
1.033883259003362e-03	2.081384e-01	2.114418e-01
1.042253794717648e-03	2.581687e-01	2.622661e-01
1.050624330431933e-03	3.074164e-01	3.122954e-01
1.058994866146219e-03	3.558814e-01	3.615296e-01
1.067365401860504e-03	4.035638e-01	4.099688e-01
1.075735937574790e-03	4.504636e-01	4.576129e-01
1.089686830431932e-03	5.264390e-01	5.347941e-01
1.103637723289075e-03	5.971278e-01	6.066049e-01
1.117588616146217e-03	6.625301e-01	6.730451e-01
1.131539509003360e-03	7.226457e-01	7.341148e-01
1.145490401860502e-03	7.774747e-01	7.898140e-01
1.159441294717645e-03	8.270171e-01	8.401427e-01
1.173392187574788e-03	8.712729e-01	8.851008e-01
1.199898884003358e-03	9.342474e-01	9.490748e-01
1.226405580431929e-03	9.709520e-01	9.863619e-01
1.252912276860500e-03	9.813867e-01	9.969622e-01
1.279418973289071e-03	9.655515e-01	9.808757e-01
1.305925669717642e-03	9.234463e-01	9.381023e-01
1.332432366146213e-03	8.550713e-01	8.686421e-01
1.358939062574784e-03	7.604263e-01	7.724950e-01
1.370797321503355e-03	7.111666e-01	7.224535e-01
1.382655580431926e-03	6.587349e-01	6.691897e-01
1.394513839360497e-03	6.031311e-01	6.127034e-01
1.406372098289068e-03	5.443553e-01	5.529948e-01
1.418230357217640e-03	4.824074e-01	4.900637e-01
1.430088616146211e-03	4.172876e-01	4.239103e-01
1.441946875074782e-03	3.489956e-01	3.545345e-01
1.448922321503353e-03	3.081856e-01	3.130769e-01
1.455897767931924e-03	2.669820e-01	2.712193e-01
1.462873214360496e-03	2.253847e-01	2.289618e-01
1.469848660789067e-03	1.833938e-01	1.863044e-01
1.476824107217638e-03	1.410091e-01	1.432471e-01
1.483799553646210e-03	9.823088e-02	9.978990e-02
1.490775000074781e-03	5.505894e-02	5.593279e-02
1.510306250074780e-03	-6.556244e-02	-6.660298e-02
1.517979241146209e-03	-1.130526e-01	-1.148469e-01
1.525652232217637e-03	-1.600131e-01	-1.625527e-01
1.533325223289066e-03	-2.064439e-01	-2.097204e-01
1.540998214360494e-03	-2.523451e-01	-2.563500e-01
1.548671205431923e-03	-2.977165e-01	-3.024416e-01
1.556344196503351e-03	-3.425583e-01	-3.479951e-01
1.564017187574779e-03	-3.868704e-01	-3.930104e-01
1.577270535789065e-03	-4.618982e-01	-4.692289e-01
1.590523884003350e-03	-5.325952e-01	-5.410480e-01
1.603777232217636e-03	-5.989616e-01	-6.084677e-01
1.617030580431921e-03	-6.609974e-01	-6.714880e-01
1.630283928646207e-03	-7.187025e-01	-7.301089e-01
1.643537276860492e-03	-7.720769e-01	-7.843305e-01
1.656790625074777e-03	-8.211207e-01	-8.341526e-01
1.686087500074777e-03	-9.069811e-01	-9.213758e-01
1.715384375074776e-03	-9.608703e-01	-9.761202e-01
1.744681250074775e-03	-9.827881e-01	-9.983859e-01
1.773978125074775e-03	-9.727346e-01	-9.881728e-01
1.803275000074774e-03	-9.307097e-01	-9.454810e-01
1.832571875074774e-03	-8.567136e-01	-8.703105e-01
1.861868750074773e-03	-7.507461e-01	-7.626612e-01
1.873727009003344e-03	-7.004718e-01	-7.115889e-01
1.885585267931915e-03	-6.471070e-01	-6.573772e-01
1.897443526860486e-03	-5.906516e-01	-6.000258e-01
1.909301785789058e-03	-5.311058e-01	-5.395350e-01
1.921160044717629e-03	-4.684695e-01	-4.759046e-01
1.933018303646200e-03	-4.027427e-01	-4.091346e-01
1.944876562574771e-03	-3.339254e-01	-3.392251e-01
1.951852009003343e-03	-2.928554e-01	-2.975033e-01
1.958827455431914e-03	-2.514257e-01	-2.554161e-01
1.965802901860485e-03	-2.096364e-01	-2.129635e-01
1.972778348289057e-03	-1.674874e-01	-1.701456e-01
1.979753794717628e-03	-1.249788e-01	-1.269623e-01
1.986729241146199e-03	-8.211051e-02	-8.341368e-02
1.993704687574770e-03	-3.888256e-02	-3.949966e-02
2.013235937574770e-03	8.170891e-02	8.300571e-02
2.020908928646198e-03	1.291118e-01	1.311609e-01
2.028581919717627e-03	1.759442e-01	1.787366e-01
2.036254910789055e-03	2.222062e-01	2.257329e-01
2.043927901860483e-03	2.678979e-01	2.721497e-01
2.051600892931912e-03	3.130191e-01	3.179870e-01
2.059273884003341e-03	3.575699e-01	3.632449e-01
2.066946875074769e-03	4.015504e-01	4.079234e-01
2.080200223289054e-03	4.759011e-01	4.834541e-01
2.093453571503340e-03	5.458262e-01	5.544891e-01
2.106706919717625e-03	6.113258e-01	6.210282e-01
2.119960267931910e-03	6.723998e-01	6.830714e-01
2.133213616146196e-03	7.290482e-01	7.406189e-01
2.146466964360481e-03	7.812710e-01	7.936705e-01
2.159720312574767e-03	8.290682e-01	8.422263e-01
2.188319642931909e-03	9.102710e-01	9.247179e-01
2.216918973289051e-03	9.609553e-01	9.762065e-01
2.245518303646193e-03	9.811209e-01	9.966922e-01
2.274117634003336e-03	9.707680e-01	9.861750e-01
2.302716964360478e-03	9.298965e-01	9.446548e-01
2.331316294717620e-03	8.585063e-01	8.721316e-01
2.359915625074763e-03	7.565976e-01	7.686055e-01
2.371773884003334e-03	7.069979e-01	7.182186e-01
2.383632142931905e-03	6.542532e-01	6.646368e-01
2.395490401860476e-03	5.983635e-01	6.078601e-01
2.407348660789047e-03	5.393288e-01	5.478885e-01
2.419206919717619e-03	4.771492e-01	4.847220e-01
2.431065178646189e-03	4.118246e-01	4.183606e-01
2.442923437574761e-03	3.433550e-01	3.488044e-01
2.449898884003332e-03	3.024568e-01	3.072571e-01
2.456874330431903e-03	2.611763e-01	2.653214e-01
2.463849776860475e-03	2.195134e-01	2.229973e-01
2.470825223289046e-03	1.774683e-01	1.802849e-01
2.477800669717617e-03	1.350407e-01	1.371840e-01
2.484776116146188e-03	9.223088e-02	9.369467e-02
2.491751562574760e-03	4.903867e-02	4.981697e-02
2.495239285789045e-03	2.747713e-02	2.791321e-02
2.498727009003331e-03	5.927781e-03	6.021858e-03
2.502214732217617e-03	-1.560936e-02	-1.585710e-02
2.505702455431902e-03	-3.713430e-02	-3.772366e-02
2.509190178646188e-03	-5.864704e-02	-5.957783e-02
2.512677901860474e-03	-8.014758e-02	-8.141960e-02
2.516165625074759e-03	-1.016359e-01	-1.032490e-01
2.524536160789045e-03	-1.532737e-01	-1.557063e-01
2.532906696503330e-03	-2.041447e-01	-2.073847e-01
2.541277232217616e-03	-2.542491e-01	-2.582843e-01
2.549647767931901e-03	-3.035868e-01	-3.084051e-01
2.558018303646187e-03	-3.521579e-01	-3.577470e-01
2.566388839360472e-03	-3.999622e-01	-4.063100e-01
2.574759375074758e-03	-4.469999e-01	-4.540942e-01
2.588710267931900e-03	-5.232437e-01	-5.315480e-01
2.602661160789043e-03	-5.942335e-01	-6.036645e-01
2.616612053646186e-03	-6.599693e-01	-6.704436e-01
2.630562946503328e-03	-7.204512e-01	-7.318854e-01
2.644513839360471e-03	-7.756791e-01	-7.879899e-01
2.658464732217614e-03	-8.256531e-01	-8.387570e-01
2.672415625074756e-03	-8.703731e-01	-8.841867e-01
2.698922321503327e-03	-9.343400e-01	-9.491689e-01
2.725429017931897e-03	-9.720209e-01	-9.874478e-01
2.751935714360468e-03	-9.834158e-01	-9.990236e-01
2.778442410789039e-03	-9.685247e-01	-9.838962e-01
2.804949107217610e-03	-9.273476e-01	-9.420656e-01
2.831455803646181e-03	-8.598846e-01	-8.735318e-01
2.857962500074752e-03	-7.661355e-01	-7.782948e-01
2.869820759003323e-03	-7.172175e-01	-7.286005e-01
2.881679017931894e-03	-6.651006e-01	-6.756564e-01
2.893537276860465e-03	-6.097846e-01	-6.194625e-01
2.905395535789037e-03	-5.512698e-01	-5.600189e-01
2.917253794717608e-03	-4.895559e-01	-4.973256e-01
2.929112053646179e-03	-4.246430e-01	-4.313825e-01
2.940970312574750e-03	-3.565312e-01	-3.621897e-01
2.947945759003322e-03	-3.158109e-01	-3.208231e-01
2.954921205431893e-03	-2.746856e-01	-2.790451e-01
2.961896651860464e-03	-2.331553e-01	-2.368557e-01
2.968872098289035e-03	-1.912201e-01	-1.942549e-01
2.975847544717607e-03	-1.488799e-01	-1.512427e-01
2.982822991146178e-03	-1.061347e-01	-1.078192e-01
2.989798437574749e-03	-6.298461e-02	-6.398424e-02
2.999564062574749e-03	-2.676571e-03	-2.719051e-03
3.003749330431891e-03	2.322952e-02	2.359820e-02
3.007934598289035e-03	4.907435e-02	4.985321e-02
3.012119866146177e-03	7.485790e-02	7.604597e-02
3.016305134003320e-03	1.005802e-01	1.021765e-01
3.020490401860463e-03	1.262412e-01	1.282448e-01
3.024675669717606e-03	1.518409e-01	1.542508e-01
3.028860937574748e-03	1.773794e-01	1.801946e-01
3.038626562574748e-03	2.368837e-01	2.406432e-01
3.048392187574748e-03	2.949622e-01	2.996435e-01
3.058157812574748e-03	3.516149e-01	3.571954e-01
3.067923437574747e-03	4.068420e-01	4.132989e-01
3.077689062574747e-03	4.606432e-01	4.679541e-01
3.087454687574747e-03	5.130188e-01	5.211609e-01
3.097220312574747e-03	5.639685e-01	5.729192e-01
3.113263839360461e-03	6.436380e-01	6.538532e-01
3.129307366146175e-03	7.151907e-01	7.265415e-01
3.145350892931888e-03	7.786266e-01	7.909841e-01
3.161394419717603e-03	8.339456e-01	8.471812e-01
3.177437946503317e-03	8.811478e-01	8.951325e-01
3.193481473289031e-03	9.202333e-01	9.348383e-01
3.209525000074744e-03	9.512019e-01	9.662983e-01
3.231846428646172e-03	9.751555e-01	9.906322e-01
3.254167857217601e-03	9.807342e-01	9.962994e-01
3.276489285789029e-03	9.679378e-01	9.832999e-01
3.298810714360457e-03	9.367664e-01	9.516338e-01
3.321132142931885e-03	8.872200e-01	9.013010e-01
3.343453571503313e-03	8.192985e-01	8.323016e-01
3.365775000074741e-03	7.330020e-01	7.446355e-01
3.377633259003312e-03	6.814017e-01	6.922162e-01
3.389491517931883e-03	6.268213e-01	6.367696e-01
3.401349776860455e-03	5.692607e-01	5.782954e-01
3.413208035789026e-03	5.087200e-01	5.167939e-01
3.425066294717597e-03	4.451991e-01	4.522648e-01
3.436924553646168e-03	3.786980e-01	3.847083e-01
3.448782812574739e-03	3.092169e-01	3.141244e-01
3.455060714360453e-03	2.720211e-01	2.763384e-01
3.461338616146168e-03	2.345478e-01	2.382703e-01
3.467616517931882e-03	1.967968e-01	1.999201e-01
3.473894419717596e-03	1.587682e-01	1.612880e-01
3.480172321503310e-03	1.204619e-01	1.223737e-01
3.486450223289024e-03	8.187801e-02	8.317749e-02
3.492728125074738e-03	4.301649e-02	4.369920e-02
3.496215848289024e-03	2.145007e-02	2.179050e-02
3.499703571503310e-03	-1.012447e-04	-1.028516e-04
3.503191294717595e-03	-2.163746e-02	-2.198087e-02
3.506679017931881e-03	-4.315858e-02	-4.384355e-02
3.510166741146166e-03	-6.466461e-02	-6.569090e-02
3.513654464360452e-03	-8.615553e-02	-8.752290e-02
3.517142187574738e-03	-1.076314e-01	-1.093396e-01
3.525512723289023e-03	-1.592268e-01	-1.617539e-01
3.533883259003309e-03	-2.100396e-01	-2.133731e-01
3.542253794717595e-03	-2.600698e-01	-2.641973e-01
3.550624330431880e-03	-3.093173e-01	-3.142265e-01
3.558994866146165e-03	-3.577823e-01	-3.634606e-01
3.567365401860451e-03	-4.054646e-01	-4.118997e-01
3.575735937574737e-03	-4.523643e-01	-4.595437e-01
3.589686830431879e-03	-5.283395e-01	-5.367248e-01
3.603637723289022e-03	-5.990282e-01	-6.085353e-01
3.617588616146164e-03	-6.644303e-01	-6.749754e-01
3.631539509003307e-03	-7.245457e-01	-7.360449e-01
3.645490401860449e-03	-7.793746e-01	-7.917440e-01
3.659441294717592e-03	-8.289168e-01	-8.420725e-01
3.673392187574735e-03	-8.731724e-01	-8.870305e-01
3.699898884003306e-03	-9.361466e-01	-9.510041e-01
3.726405580431876e-03	-9.728509e-01	-9.882909e-01
3.752912276860447e-03	-9.832852e-01	-9.988909e-01
3.779418973289018e-03	-9.674497e-01	-9.828041e-01
3.805925669717589e-03	-9.253443e-01	-9.400304e-01
3.832432366146160e-03	-8.569690e-01	-8.705699e-01
3.858939062574731e-03	-7.623237e-01	-7.744225e-01
3.870797321503302e-03	-7.130639e-01	-7.243809e-01
3.882655580431873e-03	-6.606320e-01	-6.711169e-01
3.894513839360444e-03	-6.050280e-01	-6.146304e-01
3.906372098289015e-03	-5.462521e-01	-5.549217e-01
3.918230357217586e-03	-4.843041e-01	-4.919905e-01
3.930088616146158e-03	-4.191841e-01	-4.258369e-01
3.941946875074729e-03	-3.508920e-01	-3.564610e-01
3.948922321503300e-03	-3.100819e-01	-3.150033e-01
3.955897767931872e-03	-2.688782e-01	-2.731456e-01
3.962873214360443e-03	-2.272809e-01	-2.308880e-01
3.969848660789014e-03	-1.852898e-01	-1.882305e-01
3.976824107217585e-03	-1.429051e-01	-1.451732e-01
3.983799553646156e-03	-1.001268e-01	-1.017159e-01
3.990775000074728e-03	-5.695476e-02	-5.785869e-02
4.010306250074727e-03	6.366686e-02	6.467731e-02
4.017979241146156e-03	1.111571e-01	1.129213e-01
4.025652232217584e-03	1.581177e-01	1.606272e-01
4.033325223289012e-03	2.045486e-01	2.077950e-01
4.040998214360441e-03	2.504498e-01	2.544247e-01
4.048671205431870e-03	2.958214e-01	3.005164e-01
4.056344196503298e-03	3.406633e-01	3.460699e-01
4.064017187574726e-03	3.849755e-01	3.910854e-01
4.077270535789011e-03	4.600033e-01	4.673040e-01
4.090523884003297e-03	5.307006e-01	5.391233e-01
4.103777232217582e-03	5.970671e-01	6.065432e-01
4.117030580431868e-03	6.591030e-01	6.695636e-01
4.130283928646153e-03	7.168083e-01	7.281847e-01
4.143537276860439e-03	7.701829e-01	7.824064e-01
4.156790625074724e-03	8.192268e-01	8.322287e-01
4.186087500074724e-03	9.050876e-01	9.194522e-01
4.215384375074723e-03	9.589771e-01	9.741970e-01
4.244681250074722e-03	9.808952e-01	9.964630e-01
4.273978125074722e-03	9.708421e-01	9.862503e-01
4.303275000074721e-03	9.288176e-01	9.435588e-01
4.332571875074720e-03	8.548218e-01	8.683886e-01
4.361868750074720e-03	7.488546e-01	7.607397e-01
4.373727009003291e-03	6.985804e-01	7.096676e-01
4.385585267931862e-03	6.452158e-01	6.554560e-01
4.397443526860434e-03	5.887606e-01	5.981048e-01
4.409301785789004e-03	5.292149e-01	5.376140e-01
4.421160044717575e-03	4.665787e-01	4.739838e-01
4.433018303646147e-03	4.008520e-01	4.072139e-01
4.444876562574718e-03	3.320349e-01	3.373046e-01
4.451852009003289e-03	2.909649e-01	2.955828e-01
4.458827455431861e-03	2.495354e-01	2.534957e-01
4.465802901860432e-03	2.077461e-01	2.110433e-01
4.472778348289003e-03	1.655972e-01	1.682254e-01
4.479753794717574e-03	1.230887e-01	1.250422e-01
4.486729241146146e-03	8.022047e-02	8.149365e-02
4.493704687574717e-03	3.699261e-02	3.757972e-02
4.513235937574717e-03	-8.359864e-02	-8.492543e-02
4.520908928646145e-03	-1.310014e-01	-1.330805e-01
4.528581919717573e-03	-1.778337e-01	-1.806561e-01
4.536254910789001e-03	-2.240957e-01	-2.276523e-01
4.543927901860431e-03	-2.697872e-01	-2.740690e-01
4.551600892931859e-03	-3.149084e-01	-3.199063e-01
4.559273884003287e-03	-3.594591e-01	-3.651641e-01
4.566946875074715e-03	-4.034395e-01	-4.098424e-01
4.580200223289001e-03	-4.777901e-01	-4.853731e-01
4.593453571503286e-03	-5.477151e-01	-5.564079e-01
4.606706919717572e-03	-6.132145e-01	-6.229468e-01
4.619960267931857e-03	-6.742883e-01	-6.849899e-01
4.633213616146143e-03	-7.309365e-01	-7.425372e-01
4.646466964360428e-03	-7.831591e-01	-7.955886e-01
4.659720312574714e-03	-8.309562e-01	-8.441442e-01
4.688319642931856e-03	-9.121587e-01	-9.266355e-01
4.716918973288998e-03	-9.628427e-01	-9.781239e-01
4.745518303646140e-03	-9.830080e-01	-9.986092e-01
4.774117634003283e-03	-9.726547e-01	-9.880917e-01
4.802716964360425e-03	-9.317828e-01	-9.465711e-01
4.831316294717567e-03	-8.603924e-01	-8.740476e-01
4.859915625074709e-03	-7.584833e-01	-7.705212e-01
4.866891071503281e-03	-7.301206e-01	-7.417084e-01
4.873866517931852e-03	-7.005068e-01	-7.116245e-01
4.880841964360423e-03	-6.696418e-01	-6.802697e-01
4.887817410788994e-03	-6.375257e-01	-6.476438e-01
4.894792857217565e-03	-6.041584e-01	-6.137469e-01
4.901768303646137e-03	-5.695399e-01	-5.785790e-01
4.908743750074708e-03	-5.336702e-01	-5.421401e-01
4.913626562574708e-03	-5.080586e-01	-5.161220e-01
4.922694642931851e-03	-4.588233e-01	-4.661052e-01
4.931762723288993e-03	-4.085203e-01	-4.150039e-01
4.940830803646136e-03	-3.571497e-01	-3.628180e-01
4.949898884003279e-03	-3.047114e-01	-3.095474e-01
4.958966964360422e-03	-2.512054e-01	-2.551923e-01
4.968035044717564e-03	-1.966318e-01	-1.997526e-01
4.977103125074707e-03	-1.409906e-01	-1.432282e-01
4.996634375074706e-03	-2.076936e-02	-2.109899e-02
5.000000000000000e-03	2.922715e-05	2.969102e-05
