time	V(n002)	V(n003)
0.000000000000000e+00	0.000000e+00	2.356301e-16
4.882812557061023e-11	3.067962e-07	1.753209e-06
9.765625114122045e-11	6.135923e-07	3.215640e-06
1.953125022824409e-10	1.227185e-06	5.250879e-06
3.906250045648818e-10	2.454369e-06	7.384280e-06
7.812500091297636e-10	4.908738e-06	9.097953e-06
1.562500018259527e-09	9.817477e-06	1.170034e-05
3.125000036519054e-09	1.963495e-05	1.926319e-05
6.250000073038109e-09	3.926991e-05	3.789731e-05
1.250000014607622e-08	7.853982e-05	7.701805e-05
4.412723225095356e-06	2.777245e-02	2.774159e-02
8.812946450044637e-06	5.539337e-02	5.533308e-02
1.321316967499392e-05	8.294130e-02	8.285148e-02
1.761339289994320e-05	1.104162e-01	1.102968e-01
2.201361612489248e-05	1.378182e-01	1.376690e-01
2.641383934984176e-05	1.651472e-01	1.649682e-01
3.081406257479102e-05	1.924032e-01	1.921943e-01
3.918459828907674e-05	2.440646e-01	2.438000e-01
4.755513400336246e-05	2.947094e-01	2.943901e-01
5.592566971764818e-05	3.443373e-01	3.439645e-01
6.429620543193390e-05	3.929485e-01	3.925233e-01
7.266674114621962e-05	4.405430e-01	4.400663e-01
8.103727686050534e-05	4.871206e-01	4.865937e-01
8.940781257479103e-05	5.326815e-01	5.321053e-01
9.917343757479104e-05	5.835758e-01	5.829446e-01
1.040562500747910e-04	6.082109e-01	6.075531e-01
1.089390625747910e-04	6.322736e-01	6.315898e-01
1.138218750747911e-04	6.557412e-01	6.550321e-01
1.187046875747911e-04	6.785917e-01	6.778579e-01
1.235875000747910e-04	7.008035e-01	7.000457e-01
1.284703125747911e-04	7.223557e-01	7.215746e-01
1.333531250747911e-04	7.432280e-01	7.424244e-01
1.431187500747911e-04	7.828553e-01	7.820089e-01
1.528843750747911e-04	8.195360e-01	8.186500e-01
1.626500000747911e-04	8.531322e-01	8.522099e-01
1.724156250747911e-04	8.835174e-01	8.825624e-01
1.821812500747911e-04	9.105773e-01	9.095930e-01
1.919468750747911e-04	9.342099e-01	9.332001e-01
2.017125000747911e-04	9.543264e-01	9.532950e-01
2.114781250747911e-04	9.708510e-01	9.698018e-01
2.212437500747911e-04	9.837216e-01	9.826586e-01
2.358921875747911e-04	9.960738e-01	9.949977e-01
2.505406250747911e-04	9.999942e-01	9.989141e-01
2.651890625747911e-04	9.954495e-01	9.943745e-01
2.798375000747912e-04	9.824781e-01	9.814174e-01
2.896031250747912e-04	9.692003e-01	9.681541e-01
2.993687500747912e-04	9.522747e-01	9.512470e-01
3.091343750747912e-04	9.317649e-01	9.307596e-01
3.189000000747912e-04	9.077482e-01	9.067691e-01
3.286656250747912e-04	8.803149e-01	8.793657e-01
3.384312500747912e-04	8.495683e-01	8.486526e-01
3.481968750747912e-04	8.156242e-01	8.147453e-01
3.579625000747912e-04	7.786102e-01	7.777716e-01
3.677281250747912e-04	7.386657e-01	7.378705e-01
3.726109375747912e-04	7.176411e-01	7.168686e-01
3.774937500747912e-04	6.959410e-01	6.951922e-01
3.823765625747912e-04	6.735860e-01	6.728614e-01
3.872593750747913e-04	6.505970e-01	6.498973e-01
3.921421875747913e-04	6.269956e-01	6.263216e-01
3.970250000747913e-04	6.028042e-01	6.021564e-01
4.019078125747913e-04	5.780454e-01	5.774245e-01
4.116734375747913e-04	5.269197e-01	5.263541e-01
4.214390625747913e-04	4.738106e-01	4.733025e-01
4.360875000747913e-04	3.908677e-01	3.904493e-01
4.437604911462199e-04	3.457846e-01	3.454150e-01
4.514334822176485e-04	3.001667e-01	2.998464e-01
4.591064732890770e-04	2.540139e-01	2.537436e-01
4.667794643605056e-04	2.073263e-01	2.071064e-01
4.744524554319342e-04	1.601039e-01	1.599349e-01
4.821254465033628e-04	1.123466e-01	1.122291e-01
4.897984375747913e-04	6.405442e-02	6.398907e-02
5.044468750747914e-04	-2.793691e-02	-2.790310e-02
5.107247768605057e-04	-6.748633e-02	-6.740992e-02
5.170026786462200e-04	-1.067791e-01	-1.066604e-01
5.232805804319343e-04	-1.458153e-01	-1.456546e-01
5.295584822176485e-04	-1.845948e-01	-1.843924e-01
5.358363840033628e-04	-2.231177e-01	-2.228738e-01
5.421142857890771e-04	-2.613840e-01	-2.610989e-01
5.483921875747914e-04	-2.993937e-01	-2.990677e-01
5.602504465033628e-04	-3.704746e-01	-3.700724e-01
5.721087054319343e-04	-4.386033e-01	-4.381280e-01
5.839669643605057e-04	-5.037797e-01	-5.032344e-01
5.958252232890771e-04	-5.660037e-01	-5.653918e-01
6.076834822176487e-04	-6.252754e-01	-6.246000e-01
6.195417411462201e-04	-6.815948e-01	-6.808592e-01
6.314000000747915e-04	-7.349619e-01	-7.341692e-01
6.530238840033629e-04	-8.220451e-01	-8.211596e-01
6.746477679319344e-04	-8.917158e-01	-8.907560e-01
6.962716518605058e-04	-9.439739e-01	-9.429585e-01
7.178955357890772e-04	-9.788195e-01	-9.777672e-01
7.395194197176488e-04	-9.962525e-01	-9.951820e-01
7.611433036462202e-04	-9.962730e-01	-9.952028e-01
7.827671875747916e-04	-9.788810e-01	-9.778298e-01
7.988107143605059e-04	-9.520922e-01	-9.510698e-01
8.148542411462202e-04	-9.167887e-01	-9.158043e-01
8.308977679319346e-04	-8.729704e-01	-8.720331e-01
8.469412947176489e-04	-8.206374e-01	-8.197563e-01
8.629848215033632e-04	-7.597897e-01	-7.589740e-01
8.790283482890775e-04	-6.904273e-01	-6.896861e-01
8.950718750747917e-04	-6.125501e-01	-6.118925e-01
9.055350447176488e-04	-5.586651e-01	-5.580654e-01
9.159982143605060e-04	-5.029906e-01	-5.024507e-01
9.264613840033631e-04	-4.455266e-01	-4.450485e-01
9.369245536462203e-04	-3.862732e-01	-3.858588e-01
9.473877232890774e-04	-3.252303e-01	-3.248815e-01
9.578508929319347e-04	-2.623979e-01	-2.621168e-01
9.683140625747918e-04	-1.977760e-01	-1.975645e-01
9.724993304319346e-04	-1.718881e-01	-1.717044e-01
9.766845982890774e-04	-1.459264e-01	-1.457706e-01
9.808698661462202e-04	-1.198908e-01	-1.197631e-01
9.850551340033630e-04	-9.378146e-02	-9.368186e-02
9.892404018605058e-04	-6.759825e-02	-6.752686e-02
9.934256697176486e-04	-4.134122e-02	-4.129811e-02
9.976109375747914e-04	-1.501036e-02	-1.499562e-02
1.012259375074791e-03	7.695178e-02	7.686739e-02
1.019932366146220e-03	1.251842e-01	1.250478e-01
1.027605357217648e-03	1.728527e-01	1.726649e-01
1.035278348289076e-03	2.199572e-01	2.197187e-01
1.042951339360505e-03	2.664978e-01	2.662090e-01
1.050624330431933e-03	3.124744e-01	3.121360e-01
1.058297321503361e-03	3.578870e-01	3.574996e-01
1.065970312574790e-03	4.027357e-01	4.022999e-01
1.080618750074790e-03	4.851569e-01	4.846320e-01
1.090384375074789e-03	5.378644e-01	5.372826e-01
1.100150000074789e-03	5.885475e-01	5.879110e-01
1.105032812574789e-03	6.130700e-01	6.124070e-01
1.109915625074789e-03	6.370154e-01	6.363266e-01
1.114798437574789e-03	6.603613e-01	6.596473e-01
1.119681250074789e-03	6.830858e-01	6.823472e-01
1.124564062574789e-03	7.051673e-01	7.044048e-01
1.129446875074789e-03	7.265851e-01	7.257996e-01
1.134329687574788e-03	7.473192e-01	7.465112e-01
1.144095312574788e-03	7.866583e-01	7.858078e-01
1.153860937574788e-03	8.230366e-01	8.221468e-01
1.163626562574788e-03	8.563172e-01	8.553915e-01
1.173392187574788e-03	8.863748e-01	8.854167e-01
1.183157812574787e-03	9.130964e-01	9.121093e-01
1.192923437574787e-03	9.363812e-01	9.353690e-01
1.202689062574787e-03	9.561417e-01	9.551083e-01
1.212454687574787e-03	9.723034e-01	9.712527e-01
1.222220312574787e-03	9.848056e-01	9.837415e-01
1.236868750074786e-03	9.965983e-01	9.955215e-01
1.251517187574786e-03	9.999546e-01	9.988744e-01
1.266165625074786e-03	9.948460e-01	9.937717e-01
1.280814062574785e-03	9.813160e-01	9.802565e-01
1.290579687574785e-03	9.676709e-01	9.666265e-01
1.300345312574785e-03	9.503838e-01	9.493582e-01
1.310110937574785e-03	9.295197e-01	9.285169e-01
1.319876562574784e-03	9.051570e-01	9.041808e-01
1.329642187574784e-03	8.773875e-01	8.764415e-01
1.339407812574784e-03	8.463158e-01	8.454036e-01
1.349173437574784e-03	8.120587e-01	8.111838e-01
1.358939062574784e-03	7.747452e-01	7.739108e-01
1.363821875074784e-03	7.549857e-01	7.541728e-01
1.368704687574783e-03	7.345157e-01	7.337251e-01
1.373587500074783e-03	7.133544e-01	7.125867e-01
1.378470312574783e-03	6.915217e-01	6.907777e-01
1.383353125074783e-03	6.690382e-01	6.683185e-01
1.388235937574783e-03	6.459250e-01	6.452304e-01
1.393118750074783e-03	6.222038e-01	6.215350e-01
1.398001562574783e-03	5.978971e-01	5.972546e-01
1.402884375074783e-03	5.730277e-01	5.724121e-01
1.412650000074783e-03	5.216947e-01	5.211349e-01
1.427298437574782e-03	4.410761e-01	4.406035e-01
1.435668973289068e-03	3.929398e-01	3.925192e-01
1.444039509003353e-03	3.440608e-01	3.436931e-01
1.452410044717639e-03	2.944391e-01	2.941250e-01
1.460780580431924e-03	2.440748e-01	2.438151e-01
1.469151116146210e-03	1.929678e-01	1.927634e-01
1.477521651860495e-03	1.411182e-01	1.409697e-01
1.485892187574781e-03	8.852597e-02	8.843423e-02
1.500540625074781e-03	-3.396841e-03	-3.389470e-03
1.505423437574781e-03	-3.414167e-02	-3.410117e-02
1.510306250074780e-03	-6.478256e-02	-6.470904e-02
1.515189062574780e-03	-9.531951e-02	-9.521310e-02
1.520071875074780e-03	-1.257525e-01	-1.256133e-01
1.524954687574780e-03	-1.560816e-01	-1.559098e-01
1.529837500074780e-03	-1.863067e-01	-1.861024e-01
1.534720312574780e-03	-2.164279e-01	-2.161912e-01
1.545183482217637e-03	-2.807447e-01	-2.804388e-01
1.555646651860494e-03	-3.431978e-01	-3.428248e-01
1.566109821503351e-03	-4.037872e-01	-4.033492e-01
1.576572991146208e-03	-4.625129e-01	-4.620119e-01
1.587036160789065e-03	-5.193749e-01	-5.188129e-01
1.597499330431921e-03	-5.743733e-01	-5.737523e-01
1.607962500074778e-03	-6.275079e-01	-6.268301e-01
1.625401116146207e-03	-7.106118e-01	-7.098452e-01
1.642839732217635e-03	-7.833779e-01	-7.825336e-01
1.660278348289063e-03	-8.458061e-01	-8.448952e-01
1.677716964360491e-03	-8.978965e-01	-8.969301e-01
1.695155580431919e-03	-9.396490e-01	-9.386382e-01
1.712594196503348e-03	-9.710637e-01	-9.700196e-01
1.730032812574776e-03	-9.921405e-01	-9.910743e-01
1.744681250074775e-03	-9.994416e-01	-9.983678e-01
1.759329687574775e-03	-9.982823e-01	-9.972100e-01
1.773978125074775e-03	-9.886724e-01	-9.876106e-01
1.790719196503346e-03	-9.661402e-01	-9.651027e-01
1.807460267931917e-03	-9.341232e-01	-9.331201e-01
1.824201339360488e-03	-8.926212e-01	-8.916627e-01
1.840942410789059e-03	-8.416342e-01	-8.407306e-01
1.857683482217630e-03	-7.811624e-01	-7.803237e-01
1.874424553646201e-03	-7.112056e-01	-7.104420e-01
1.891165625074772e-03	-6.317638e-01	-6.310856e-01
1.901628794717629e-03	-5.788484e-01	-5.782270e-01
1.912091964360486e-03	-5.240480e-01	-5.234855e-01
1.922555134003343e-03	-4.673628e-01	-4.668612e-01
1.933018303646200e-03	-4.087927e-01	-4.083540e-01
1.943481473289057e-03	-3.483377e-01	-3.479640e-01
1.953944642931914e-03	-2.859978e-01	-2.856912e-01
1.964407812574771e-03	-2.217729e-01	-2.215355e-01
1.969290625074771e-03	-1.916861e-01	-1.914811e-01
1.974173437574771e-03	-1.614902e-01	-1.613177e-01
1.979056250074771e-03	-1.311852e-01	-1.310454e-01
1.983939062574771e-03	-1.007712e-01	-1.006641e-01
1.988821875074770e-03	-7.024818e-02	-7.017392e-02
1.993704687574770e-03	-3.961606e-02	-3.957480e-02
1.998587500074770e-03	-8.874882e-03	-8.866750e-03
2.002772767931913e-03	1.746625e-02	1.744600e-02
2.006958035789056e-03	4.374999e-02	4.370141e-02
2.011143303646198e-03	6.997634e-02	6.989949e-02
2.015328571503341e-03	9.614528e-02	9.604022e-02
2.019513839360484e-03	1.222568e-01	1.221236e-01
2.023699107217627e-03	1.483110e-01	1.481497e-01
2.027884375074770e-03	1.743077e-01	1.741184e-01
2.036952455431912e-03	2.305321e-01	2.302821e-01
2.046020535789055e-03	2.855731e-01	2.852637e-01
2.055088616146197e-03	3.394306e-01	3.390631e-01
2.064156696503340e-03	3.921048e-01	3.916804e-01
2.073224776860483e-03	4.435956e-01	4.431156e-01
2.082292857217626e-03	4.939030e-01	4.933687e-01
2.091360937574768e-03	5.430270e-01	5.424396e-01
2.101126562574768e-03	5.934970e-01	5.928552e-01
2.106009375074768e-03	6.179059e-01	6.172377e-01
2.110892187574768e-03	6.417333e-01	6.410394e-01
2.115775000074768e-03	6.649566e-01	6.642376e-01
2.120657812574768e-03	6.875542e-01	6.868107e-01
2.125540625074768e-03	7.095046e-01	7.087375e-01
2.130423437574767e-03	7.307873e-01	7.299972e-01
2.135306250074767e-03	7.513822e-01	7.505698e-01
2.145071875074767e-03	7.904317e-01	7.895771e-01
2.154837500074767e-03	8.265063e-01	8.256127e-01
2.164603125074767e-03	8.594700e-01	8.585408e-01
2.174368750074766e-03	8.891989e-01	8.882377e-01
2.184134375074766e-03	9.155810e-01	9.145914e-01
2.193900000074766e-03	9.385172e-01	9.375027e-01
2.203665625074766e-03	9.579208e-01	9.568856e-01
2.213431250074766e-03	9.737192e-01	9.726670e-01
2.223196875074765e-03	9.858527e-01	9.847874e-01
2.237845312574765e-03	9.970852e-01	9.960080e-01
2.252493750074765e-03	9.998773e-01	9.987972e-01
2.267142187574765e-03	9.942052e-01	9.931315e-01
2.281790625074764e-03	9.801169e-01	9.790588e-01
2.291556250074764e-03	9.661052e-01	9.650624e-01
2.301321875074764e-03	9.484572e-01	9.474337e-01
2.311087500074764e-03	9.272394e-01	9.262391e-01
2.320853125074763e-03	9.025317e-01	9.015583e-01
2.330618750074763e-03	8.744271e-01	8.734844e-01
2.340384375074763e-03	8.430314e-01	8.421228e-01
2.350150000074763e-03	8.084627e-01	8.075917e-01
2.359915625074763e-03	7.708511e-01	7.700209e-01
2.364798437574762e-03	7.509480e-01	7.501395e-01
2.369681250074762e-03	7.303382e-01	7.295520e-01
2.374564062574762e-03	7.090409e-01	7.082779e-01
2.379446875074762e-03	6.870764e-01	6.863372e-01
2.384329687574762e-03	6.644652e-01	6.637506e-01
2.389212500074762e-03	6.412287e-01	6.405392e-01
2.394095312574762e-03	6.173886e-01	6.167250e-01
2.398978125074762e-03	5.929675e-01	5.923303e-01
2.408743750074761e-03	5.424745e-01	5.418921e-01
2.418509375074761e-03	4.899398e-01	4.894143e-01
2.433157812574761e-03	4.077439e-01	4.073073e-01
2.440830803646189e-03	3.629968e-01	3.626086e-01
2.448503794717618e-03	3.176734e-01	3.173343e-01
2.456176785789046e-03	2.717738e-01	2.714842e-01
2.463849776860475e-03	2.252979e-01	2.250585e-01
2.471522767931903e-03	1.782457e-01	1.780571e-01
2.479195759003332e-03	1.306172e-01	1.304801e-01
2.486868750074760e-03	8.241250e-02	8.232737e-02
2.491054017931902e-03	5.613423e-02	5.607744e-02
2.495239285789045e-03	2.986255e-02	2.983408e-02
2.499424553646188e-03	3.597456e-03	3.597296e-03
2.503609821503331e-03	-2.266105e-02	-2.263292e-02
2.507795089360474e-03	-4.891298e-02	-4.885656e-02
2.511980357217617e-03	-7.515831e-02	-7.507362e-02
2.516165625074759e-03	-1.013971e-01	-1.012841e-01
2.524536160789045e-03	-1.539058e-01	-1.537363e-01
2.532906696503330e-03	-2.056376e-01	-2.054125e-01
2.541277232217616e-03	-2.565925e-01	-2.563126e-01
2.549647767931901e-03	-3.067705e-01	-3.064366e-01
2.558018303646187e-03	-3.561715e-01	-3.557846e-01
2.566388839360472e-03	-4.047957e-01	-4.043566e-01
2.574759375074758e-03	-4.526429e-01	-4.521524e-01
2.588710267931900e-03	-5.302061e-01	-5.296325e-01
2.602661160789043e-03	-6.024327e-01	-6.017818e-01
2.616612053646186e-03	-6.693228e-01	-6.686003e-01
2.630562946503328e-03	-7.308763e-01	-7.300880e-01
2.644513839360471e-03	-7.870933e-01	-7.862449e-01
2.658464732217614e-03	-8.379736e-01	-8.370710e-01
2.672415625074756e-03	-8.835174e-01	-8.825663e-01
2.698922321503327e-03	-9.487161e-01	-9.476957e-01
2.725429017931897e-03	-9.871863e-01	-9.861252e-01
2.751935714360468e-03	-9.989280e-01	-9.978548e-01
2.778442410789039e-03	-9.839412e-01	-9.828845e-01
2.804949107217610e-03	-9.422260e-01	-9.412143e-01
2.831455803646181e-03	-8.737823e-01	-8.728442e-01
2.857962500074752e-03	-7.786102e-01	-7.777742e-01
2.869820759003323e-03	-7.289293e-01	-7.281466e-01
2.881679017931894e-03	-6.759915e-01	-6.752657e-01
2.893537276860465e-03	-6.197968e-01	-6.191313e-01
2.905395535789037e-03	-5.603452e-01	-5.597437e-01
2.917253794717608e-03	-4.976368e-01	-4.971026e-01
2.929112053646179e-03	-4.316714e-01	-4.312082e-01
2.940970312574750e-03	-3.624492e-01	-3.620604e-01
2.947945759003322e-03	-3.210621e-01	-3.207178e-01
2.954921205431893e-03	-2.792614e-01	-2.789621e-01
2.961896651860464e-03	-2.370472e-01	-2.367933e-01
2.968872098289035e-03	-1.944194e-01	-1.942114e-01
2.975847544717607e-03	-1.513780e-01	-1.512163e-01
2.982822991146178e-03	-1.079230e-01	-1.078081e-01
2.989798437574749e-03	-6.405442e-02	-6.398683e-02
2.999564062574749e-03	-2.739072e-03	-2.737544e-03
3.004446875074749e-03	2.800875e-02	2.797714e-02
3.009329687574749e-03	5.865836e-02	5.859371e-02
3.014212500074749e-03	8.920977e-02	8.911219e-02
3.019095312574748e-03	1.196630e-01	1.195326e-01
3.023978125074748e-03	1.500180e-01	1.498548e-01
3.028860937574748e-03	1.802748e-01	1.800790e-01
3.033743750074748e-03	2.104334e-01	2.102051e-01
3.042114285789034e-03	2.618727e-01	2.615888e-01
3.050484821503319e-03	3.122482e-01	3.119100e-01
3.058855357217605e-03	3.615599e-01	3.611685e-01
3.067225892931890e-03	4.098079e-01	4.093644e-01
3.075596428646176e-03	4.569921e-01	4.564977e-01
3.083966964360461e-03	5.031125e-01	5.025683e-01
3.092337500074747e-03	5.481691e-01	5.475763e-01
3.097220312574747e-03	5.735666e-01	5.729463e-01
3.102103125074747e-03	5.984243e-01	5.977771e-01
3.106985937574747e-03	6.227186e-01	6.220453e-01
3.111868750074747e-03	6.464270e-01	6.457280e-01
3.116751562574746e-03	6.695269e-01	6.688030e-01
3.121634375074746e-03	6.919967e-01	6.912485e-01
3.126517187574746e-03	7.138152e-01	7.130435e-01
3.131400000074746e-03	7.349619e-01	7.341673e-01
3.141165625074746e-03	7.751609e-01	7.743229e-01
3.150931250074746e-03	8.124424e-01	8.115641e-01
3.160696875074745e-03	8.466660e-01	8.457507e-01
3.170462500074745e-03	8.777030e-01	8.767542e-01
3.180228125074745e-03	9.054364e-01	9.044577e-01
3.189993750074745e-03	9.297620e-01	9.287571e-01
3.199759375074745e-03	9.505882e-01	9.495609e-01
3.209525000074744e-03	9.678366e-01	9.667907e-01
3.219290625074744e-03	9.814423e-01	9.803818e-01
3.233939062574744e-03	9.949125e-01	9.938376e-01
3.248587500074744e-03	9.999606e-01	9.988804e-01
3.263235937574743e-03	9.965439e-01	9.954677e-01
3.277884375074743e-03	9.846912e-01	9.836281e-01
3.287650000074743e-03	9.721495e-01	9.711001e-01
3.297415625074743e-03	9.559488e-01	9.549171e-01
3.307181250074742e-03	9.361501e-01	9.351401e-01
3.316946875074742e-03	9.128280e-01	9.118434e-01
3.326712500074742e-03	8.860701e-01	8.851147e-01
3.336478125074742e-03	8.559774e-01	8.550547e-01
3.346243750074742e-03	8.226628e-01	8.217764e-01
3.356009375074741e-03	7.862520e-01	7.854052e-01
3.365775000074741e-03	7.468820e-01	7.460778e-01
3.370657812574741e-03	7.261330e-01	7.253515e-01
3.375540625074741e-03	7.047008e-01	7.039425e-01
3.380423437574741e-03	6.826053e-01	6.818709e-01
3.385306250074741e-03	6.598673e-01	6.591576e-01
3.390189062574741e-03	6.365082e-01	6.358239e-01
3.395071875074740e-03	6.125501e-01	6.118918e-01
3.399954687574740e-03	5.880156e-01	5.873838e-01
3.409720312574740e-03	5.373097e-01	5.367329e-01
3.419485937574740e-03	4.845816e-01	4.840619e-01
3.434134375074740e-03	4.021336e-01	4.017031e-01
3.441807366146168e-03	3.572728e-01	3.568908e-01
3.449480357217597e-03	3.118495e-01	3.115167e-01
3.457153348289025e-03	2.658638e-01	2.655806e-01
3.464826339360453e-03	2.193155e-01	2.190827e-01
3.472499330431881e-03	1.722048e-01	1.720228e-01
3.480172321503310e-03	1.245316e-01	1.244011e-01
3.487845312574738e-03	7.629593e-02	7.621741e-02
3.492030580431881e-03	5.000698e-02	4.995680e-02
3.496215848289024e-03	2.372885e-02	2.370700e-02
3.500401116146167e-03	-2.538455e-03	-2.531994e-03
3.504586384003310e-03	-2.879493e-02	-2.876018e-02
3.508771651860452e-03	-5.504059e-02	-5.497756e-02
3.512956919717595e-03	-8.127541e-02	-8.118413e-02
3.517142187574738e-03	-1.074994e-01	-1.073799e-01
3.525512723289023e-03	-1.599654e-01	-1.597894e-01
3.533883259003309e-03	-2.116383e-01	-2.114067e-01
3.542253794717595e-03	-2.625180e-01	-2.622317e-01
3.550624330431880e-03	-3.126046e-01	-3.122645e-01
3.558994866146165e-03	-3.618981e-01	-3.615051e-01
3.567365401860451e-03	-4.103985e-01	-4.099533e-01
3.575735937574737e-03	-4.581057e-01	-4.576094e-01
3.589686830431879e-03	-5.353964e-01	-5.348172e-01
3.603637723289022e-03	-6.073173e-01	-6.066611e-01
3.617588616146164e-03	-6.738684e-01	-6.731410e-01
3.631539509003307e-03	-7.350497e-01	-7.342569e-01
3.645490401860449e-03	-7.908612e-01	-7.900088e-01
3.659441294717592e-03	-8.413029e-01	-8.403967e-01
3.673392187574735e-03	-8.863748e-01	-8.854206e-01
3.699898884003306e-03	-9.505645e-01	-9.495421e-01
3.726405580431876e-03	-9.880419e-01	-9.869799e-01
3.752912276860447e-03	-9.988071e-01	-9.977340e-01
3.779418973289018e-03	-9.828600e-01	-9.818044e-01
3.805925669717589e-03	-9.402007e-01	-9.391911e-01
3.832432366146160e-03	-8.708291e-01	-8.698941e-01
