Circuit: * C:\Users\Maxi\Desktop\CIRCUITOS MICROELECTRONICOS\TL2\Correciones\DiseñoCircuitoTL2Polarizacion.asc

Direct Newton iteration for .op point succeeded.
Semiconductor Device Operating Points:
                        --- Bipolar Transistors ---
Name:       q1
Model:    bc548b
Ib:       7.31e-06
Ic:       1.72e-03
Vbe:      6.76e-01
Vbc:     -7.60e+00
Vce:      8.28e+00
BetaDC:   2.35e+02
Gm:       6.52e-02
Rpi:      3.74e+03
Rx:       0.00e+00
Ro:       4.10e+04
Cbe:      6.60e-11
Cbc:      2.27e-12
Cjs:      0.00e+00
BetaAC:   2.44e+02
Cbx:      0.00e+00
Ft:       1.52e+08



Date: Wed Oct 16 00:57:54 2024
Total elapsed time: 0.014 seconds.

tnom = 27
temp = 27
method = trap
totiter = 6
traniter = 0
tranpoints = 0
accept = 0
rejected = 0
matrix size = 7
fillins = 0
solver = Normal
Matrix Compiler1: 276 bytes object code size
Matrix Compiler2: 487 bytes object code size
