time	V(emisor)	V(n004)
0.000000000000000e+00	1.225667e+00	0.000000e+00
4.899553553384199e-06	1.228358e+00	3.085023e-03
9.799107106768398e-06	1.231023e+00	6.159941e-03
1.469866066015260e-05	1.233663e+00	9.224755e-03
1.959821421353680e-05	1.236276e+00	1.227946e-02
2.449776776692100e-05	1.238863e+00	1.532407e-02
2.939732132030519e-05	1.241424e+00	1.835857e-02
3.429687487368938e-05	1.243959e+00	2.138297e-02
4.894531237368937e-05	1.251302e+00	3.027078e-02
6.359374987368937e-05	1.258278e+00	3.890235e-02
7.824218737368939e-05	1.264829e+00	4.720460e-02
9.289062487368940e-05	1.270903e+00	5.510725e-02
1.075390623736894e-04	1.276452e+00	6.254342e-02
1.249776784451180e-04	1.282406e+00	7.087402e-02
1.424162945165466e-04	1.287383e+00	7.817237e-02
1.598549105879752e-04	1.291382e+00	8.443847e-02
1.772935266594038e-04	1.294404e+00	8.967233e-02
1.947321427308324e-04	1.296449e+00	9.387393e-02
2.121707588022610e-04	1.297515e+00	9.704329e-02
2.296093748736895e-04	1.297605e+00	9.918041e-02
2.463504463022610e-04	1.296557e+00	9.991853e-02
2.630915177308324e-04	1.294663e+00	9.959574e-02
2.798325891594039e-04	1.291923e+00	9.821204e-02
2.965736605879753e-04	1.288336e+00	9.576744e-02
3.133147320165467e-04	1.283903e+00	9.226194e-02
3.300558034451182e-04	1.278623e+00	8.769552e-02
3.467968748736896e-04	1.272497e+00	8.206820e-02
3.565624998736896e-04	1.268647e+00	7.836887e-02
3.663281248736896e-04	1.264632e+00	7.441462e-02
3.760937498736897e-04	1.260453e+00	7.020546e-02
3.858593748736897e-04	1.256108e+00	6.574137e-02
3.956249998736897e-04	1.251599e+00	6.102237e-02
4.053906248736897e-04	1.246925e+00	5.604845e-02
4.151562498736897e-04	1.242087e+00	5.081961e-02
4.298046873736897e-04	1.234708e+00	4.268894e-02
4.395703123736897e-04	1.229692e+00	3.706334e-02
4.444531248736897e-04	1.227163e+00	3.419689e-02
4.493359373736897e-04	1.224622e+00	3.129825e-02
4.549162945165469e-04	1.221699e+00	2.793909e-02
4.604966516594040e-04	1.218778e+00	2.455606e-02
4.660770088022611e-04	1.215858e+00	2.114917e-02
4.716573659451183e-04	1.212940e+00	1.771843e-02
4.772377230879754e-04	1.210023e+00	1.426382e-02
4.828180802308326e-04	1.207108e+00	1.078535e-02
4.883984373736897e-04	1.204194e+00	7.283023e-03
4.939787945165468e-04	1.201296e+00	3.771573e-03
4.995591516594040e-04	1.198424e+00	2.662378e-04
5.051395088022611e-04	1.195579e+00	-3.232984e-03
5.107198659451183e-04	1.192762e+00	-6.726092e-03
5.163002230879754e-04	1.189971e+00	-1.021309e-02
5.218805802308326e-04	1.187208e+00	-1.369396e-02
5.274609373736897e-04	1.184472e+00	-1.716873e-02
5.372265623736897e-04	1.179754e+00	-2.323133e-02
5.469921873736897e-04	1.175217e+00	-2.915236e-02
5.567578123736898e-04	1.170860e+00	-3.493182e-02
5.665234373736898e-04	1.166684e+00	-4.056970e-02
5.762890623736898e-04	1.162689e+00	-4.606600e-02
5.860546873736898e-04	1.158874e+00	-5.142073e-02
5.958203123736898e-04	1.155239e+00	-5.663388e-02
6.111662945165469e-04	1.149982e+00	-6.444425e-02
6.265122766594041e-04	1.145442e+00	-7.151219e-02
6.418582588022612e-04	1.141619e+00	-7.783769e-02
6.572042409451184e-04	1.138512e+00	-8.342077e-02
6.725502230879756e-04	1.136121e+00	-8.826140e-02
6.878962052308328e-04	1.134447e+00	-9.235961e-02
7.032421873736899e-04	1.133489e+00	-9.571538e-02
7.227734373736899e-04	1.133613e+00	-9.850371e-02
7.423046873736899e-04	1.134920e+00	-9.982595e-02
7.618359373736899e-04	1.137411e+00	-9.968212e-02
7.813671873736900e-04	1.141084e+00	-9.807220e-02
8.008984373736900e-04	1.145942e+00	-9.499619e-02
8.204296873736900e-04	1.151982e+00	-9.045411e-02
8.399609373736900e-04	1.159206e+00	-8.444594e-02
8.518191963022614e-04	1.164024e+00	-8.015127e-02
8.636774552308329e-04	1.169078e+00	-7.548276e-02
8.755357141594043e-04	1.174369e+00	-7.044040e-02
8.873939730879757e-04	1.179897e+00	-6.502419e-02
8.992522320165473e-04	1.185662e+00	-5.923414e-02
9.111104909451187e-04	1.191663e+00	-5.307024e-02
9.229687498736901e-04	1.197901e+00	-4.653249e-02
9.292466516594044e-04	1.201229e+00	-4.299142e-02
9.355245534451187e-04	1.204573e+00	-3.939769e-02
9.418024552308330e-04	1.207934e+00	-3.575130e-02
9.480803570165472e-04	1.211312e+00	-3.205225e-02
9.543582588022615e-04	1.214707e+00	-2.830053e-02
9.606361605879758e-04	1.218119e+00	-2.449614e-02
9.669140623736901e-04	1.221549e+00	-2.063910e-02
9.766796873736901e-04	1.226858e+00	-1.460021e-02
9.913281248736898e-04	1.234773e+00	-5.446004e-03
1.005976562373690e-03	1.242570e+00	3.754302e-03
1.013649553445118e-03	1.246608e+00	8.593243e-03
1.021322544516546e-03	1.250564e+00	1.338471e-02
1.028995535587975e-03	1.254438e+00	1.812869e-02
1.036668526659403e-03	1.258231e+00	2.282519e-02
1.044341517730832e-03	1.261943e+00	2.747421e-02
1.052014508802260e-03	1.265572e+00	3.207576e-02
1.059687499873688e-03	1.269121e+00	3.662982e-02
1.072243303445117e-03	1.274719e+00	4.394872e-02
1.084799107016545e-03	1.279914e+00	5.089314e-02
1.097354910587973e-03	1.284704e+00	5.746306e-02
1.109910714159402e-03	1.289091e+00	6.365851e-02
1.122466517730830e-03	1.293073e+00	6.947947e-02
1.135022321302258e-03	1.296652e+00	7.492594e-02
1.147578124873686e-03	1.299827e+00	7.999793e-02
1.172689732016543e-03	1.304531e+00	8.858809e-02
1.197801339159400e-03	1.307177e+00	9.477039e-02
1.222912946302256e-03	1.307764e+00	9.854483e-02
1.248024553445113e-03	1.306293e+00	9.991140e-02
1.273136160587970e-03	1.302764e+00	9.887010e-02
1.298247767730826e-03	1.297176e+00	9.542093e-02
1.323359374873683e-03	1.289530e+00	8.956390e-02
1.335217633802254e-03	1.285334e+00	8.593914e-02
1.347075892730825e-03	1.280858e+00	8.190035e-02
1.358934151659396e-03	1.276102e+00	7.744751e-02
1.370792410587968e-03	1.271066e+00	7.258064e-02
1.382650669516539e-03	1.265749e+00	6.729973e-02
1.394508928445110e-03	1.260152e+00	6.160478e-02
1.406367187373681e-03	1.254275e+00	5.549579e-02
1.413342633802252e-03	1.250760e+00	5.177882e-02
1.420318080230824e-03	1.247210e+00	4.798111e-02
1.427293526659395e-03	1.243623e+00	4.410264e-02
1.434268973087966e-03	1.240000e+00	4.014342e-02
1.441244419516537e-03	1.236342e+00	3.610345e-02
1.448219865945109e-03	1.232648e+00	3.198272e-02
1.455195312373680e-03	1.228918e+00	2.778124e-02
1.464960937373680e-03	1.223704e+00	2.183828e-02
1.470541294516537e-03	1.220713e+00	1.839325e-02
1.476121651659394e-03	1.217734e+00	1.493627e-02
1.481702008802251e-03	1.214768e+00	1.146736e-02
1.487282365945108e-03	1.211814e+00	7.986500e-03
1.492862723087965e-03	1.208873e+00	4.493700e-03
1.498443080230822e-03	1.205943e+00	9.889557e-04
1.504023437373679e-03	1.203026e+00	-2.527731e-03
1.510301339159393e-03	1.199773e+00	-6.483165e-03
1.516579240945107e-03	1.196569e+00	-1.041334e-02
1.522857142730821e-03	1.193413e+00	-1.431827e-02
1.529135044516535e-03	1.190307e+00	-1.819794e-02
1.535412946302250e-03	1.187250e+00	-2.205235e-02
1.541690848087964e-03	1.184242e+00	-2.588151e-02
1.547968749873678e-03	1.181283e+00	-2.968541e-02
1.559827008802249e-03	1.175834e+00	-3.680026e-02
1.571685267730820e-03	1.170717e+00	-4.362111e-02
1.583543526659391e-03	1.165930e+00	-5.014798e-02
1.595401785587963e-03	1.161474e+00	-5.638085e-02
1.607260044516534e-03	1.157349e+00	-6.231973e-02
1.619118303445105e-03	1.153554e+00	-6.796462e-02
1.630976562373676e-03	1.150091e+00	-7.331552e-02
1.651205357016533e-03	1.145175e+00	-8.152315e-02
1.671434151659390e-03	1.141609e+00	-8.821776e-02
1.691662946302246e-03	1.139392e+00	-9.339934e-02
1.711891740945103e-03	1.138525e+00	-9.706790e-02
1.732120535587960e-03	1.139006e+00	-9.922344e-02
1.752349330230816e-03	1.140837e+00	-9.986595e-02
1.772578124873673e-03	1.144017e+00	-9.899544e-02
1.787226562373673e-03	1.147237e+00	-9.719759e-02
1.801874999873673e-03	1.151015e+00	-9.464965e-02
1.816523437373672e-03	1.155350e+00	-9.135162e-02
1.831171874873672e-03	1.160242e+00	-8.730350e-02
1.845820312373672e-03	1.165692e+00	-8.250528e-02
1.860468749873671e-03	1.171699e+00	-7.695698e-02
1.875117187373671e-03	1.178263e+00	-7.065859e-02
1.884185267730814e-03	1.182494e+00	-6.647653e-02
1.893253348087956e-03	1.186825e+00	-6.211582e-02
1.902321428445099e-03	1.191256e+00	-5.757646e-02
1.911389508802242e-03	1.195786e+00	-5.285845e-02
1.920457589159384e-03	1.200417e+00	-4.796180e-02
1.929525669516527e-03	1.205147e+00	-4.288649e-02
1.938593749873670e-03	1.209977e+00	-3.763253e-02
1.942779017730812e-03	1.212210e+00	-3.517910e-02
1.946964285587955e-03	1.214448e+00	-3.270566e-02
1.951149553445098e-03	1.216690e+00	-3.021221e-02
1.955334821302241e-03	1.218936e+00	-2.769876e-02
1.959520089159384e-03	1.221188e+00	-2.516529e-02
1.963705357016527e-03	1.223444e+00	-2.261182e-02
1.967890624873669e-03	1.225704e+00	-2.003833e-02
1.982539062373669e-03	1.233586e+00	-1.094904e-02
1.988816964159383e-03	1.236957e+00	-7.005405e-03
1.995094865945097e-03	1.240296e+00	-3.066177e-03
2.001372767730811e-03	1.243603e+00	8.686486e-04
2.007650669516526e-03	1.246877e+00	4.799072e-03
2.013928571302240e-03	1.250120e+00	8.725093e-03
2.020206473087954e-03	1.253331e+00	1.264671e-02
2.026484374873668e-03	1.256510e+00	1.656393e-02
2.036249999873668e-03	1.261376e+00	2.263414e-02
2.046015624873668e-03	1.266061e+00	2.856491e-02
2.055781249873667e-03	1.270567e+00	3.435623e-02
2.065546874873667e-03	1.274892e+00	4.000812e-02
2.075312499873667e-03	1.279038e+00	4.552056e-02
2.085078124873667e-03	1.283003e+00	5.089356e-02
2.094843749873667e-03	1.286788e+00	5.612711e-02
2.110189732016524e-03	1.292281e+00	6.397421e-02
2.125535714159380e-03	1.297056e+00	7.108221e-02
2.140881696302237e-03	1.301113e+00	7.745112e-02
2.156227678445094e-03	1.304451e+00	8.308095e-02
2.171573660587951e-03	1.307071e+00	8.797169e-02
2.186919642730808e-03	1.308972e+00	9.212334e-02
2.202265624873664e-03	1.310155e+00	9.553590e-02
2.221796874873664e-03	1.310312e+00	9.840019e-02
2.241328124873663e-03	1.309275e+00	9.979720e-02
2.260859374873663e-03	1.307046e+00	9.972693e-02
2.280390624873663e-03	1.303623e+00	9.818937e-02
2.299921874873662e-03	1.299008e+00	9.518453e-02
2.319453124873662e-03	1.293199e+00	9.071241e-02
2.338984374873661e-03	1.286197e+00	8.477300e-02
2.350145089159375e-03	1.281801e+00	8.078813e-02
2.361305803445089e-03	1.277186e+00	7.646421e-02
2.372466517730803e-03	1.272352e+00	7.180125e-02
2.383627232016518e-03	1.267298e+00	6.679923e-02
2.394787946302232e-03	1.262026e+00	6.145817e-02
2.405948660587946e-03	1.256534e+00	5.577807e-02
2.417109374873660e-03	1.250823e+00	4.975891e-02
2.423387276659374e-03	1.247576e+00	4.628545e-02
2.429665178445088e-03	1.244307e+00	4.275399e-02
2.435943080230802e-03	1.241016e+00	3.916452e-02
2.442220982016516e-03	1.237703e+00	3.551704e-02
2.448498883802231e-03	1.234368e+00	3.181156e-02
2.454776785587945e-03	1.231011e+00	2.804808e-02
2.461054687373659e-03	1.227632e+00	2.422659e-02
2.475703124873658e-03	1.219771e+00	1.520695e-02
2.481283482016516e-03	1.216776e+00	1.172209e-02
2.486863839159372e-03	1.213800e+00	8.233564e-03
2.492444196302230e-03	1.210843e+00	4.741360e-03
2.498024553445086e-03	1.207906e+00	1.245479e-03
2.503604910587944e-03	1.204989e+00	-2.254076e-03
2.509185267730800e-03	1.202091e+00	-5.757306e-03
2.514765624873658e-03	1.199212e+00	-9.264212e-03
2.523136160587943e-03	1.194941e+00	-1.452086e-02
2.531506696302229e-03	1.190781e+00	-1.970215e-02
2.539877232016514e-03	1.186733e+00	-2.480808e-02
2.548247767730800e-03	1.182797e+00	-2.983865e-02
2.556618303445085e-03	1.178972e+00	-3.479385e-02
2.564988839159371e-03	1.175258e+00	-3.967369e-02
2.573359374873656e-03	1.171657e+00	-4.447817e-02
2.587310267730799e-03	1.165949e+00	-5.227305e-02
2.601261160587941e-03	1.160784e+00	-5.953907e-02
2.615212053445084e-03	1.156160e+00	-6.627624e-02
2.629162946302227e-03	1.152079e+00	-7.248454e-02
2.643113839159369e-03	1.148541e+00	-7.816399e-02
2.657064732016512e-03	1.145544e+00	-8.331458e-02
2.671015624873654e-03	1.143090e+00	-8.793630e-02
2.693337053445082e-03	1.140685e+00	-9.377565e-02
2.715658482016511e-03	1.139888e+00	-9.769278e-02
2.737979910587939e-03	1.140697e+00	-9.968771e-02
2.760301339159367e-03	1.143114e+00	-9.976044e-02
2.782622767730795e-03	1.147139e+00	-9.791095e-02
2.804944196302223e-03	1.152770e+00	-9.413927e-02
2.827265624873651e-03	1.160009e+00	-8.844537e-02
2.839123883802222e-03	1.164373e+00	-8.465917e-02
2.850982142730793e-03	1.169007e+00	-8.046799e-02
2.862840401659364e-03	1.173911e+00	-7.587184e-02
2.874698660587936e-03	1.179085e+00	-7.087072e-02
2.886556919516507e-03	1.184528e+00	-6.546463e-02
2.898415178445078e-03	1.190241e+00	-5.965357e-02
2.910273437373649e-03	1.196224e+00	-5.343754e-02
2.917248883802221e-03	1.199796e+00	-4.966376e-02
2.924224330230792e-03	1.203399e+00	-4.581351e-02
2.931199776659363e-03	1.207034e+00	-4.188681e-02
2.938175223087934e-03	1.210701e+00	-3.788364e-02
2.945150669516506e-03	1.214399e+00	-3.380401e-02
2.952126115945077e-03	1.218130e+00	-2.964792e-02
2.959101562373648e-03	1.221892e+00	-2.541536e-02
2.962589285587934e-03	1.223769e+00	-2.328740e-02
2.966077008802219e-03	1.225645e+00	-2.115084e-02
2.969564732016505e-03	1.227520e+00	-1.900567e-02
2.973052455230790e-03	1.229393e+00	-1.685189e-02
2.976540178445076e-03	1.231265e+00	-1.468951e-02
2.980027901659362e-03	1.233135e+00	-1.251852e-02
2.983515624873648e-03	1.235004e+00	-1.033893e-02
2.989095982016505e-03	1.237990e+00	-6.835073e-03
2.994676339159362e-03	1.240952e+00	-3.333566e-03
3.000256696302219e-03	1.243889e+00	1.655913e-04
3.005837053445076e-03	1.246802e+00	3.662398e-03
3.011417410587933e-03	1.249690e+00	7.156855e-03
3.016997767730790e-03	1.252554e+00	1.064896e-02
3.022578124873647e-03	1.255394e+00	1.413872e-02
3.031646205230789e-03	1.259948e+00	1.979697e-02
3.040714285587932e-03	1.264356e+00	2.534698e-02
3.049782365945075e-03	1.268618e+00	3.078875e-02
3.058850446302218e-03	1.272734e+00	3.612228e-02
3.067918526659360e-03	1.276704e+00	4.134756e-02
3.076986607016503e-03	1.280528e+00	4.646461e-02
3.086054687373645e-03	1.284205e+00	5.147342e-02
3.100703124873645e-03	1.289770e+00	5.926723e-02
3.115351562373645e-03	1.294703e+00	6.642383e-02
3.129999999873644e-03	1.299003e+00	7.294323e-02
3.144648437373644e-03	1.302670e+00	7.882542e-02
3.159296874873644e-03	1.305705e+00	8.407041e-02
3.173945312373644e-03	1.308108e+00	8.867819e-02
3.188593749873643e-03	1.309878e+00	9.264876e-02
3.209520089159357e-03	1.310952e+00	9.677449e-02
3.230446428445071e-03	1.310636e+00	9.921072e-02
3.251372767730785e-03	1.308929e+00	9.995743e-02
3.272299107016499e-03	1.305832e+00	9.901464e-02
3.293225446302213e-03	1.301344e+00	9.638234e-02
3.314151785587926e-03	1.295466e+00	9.206053e-02
3.335078124873640e-03	1.288197e+00	8.604921e-02
3.346936383802211e-03	1.283609e+00	8.194704e-02
3.358794642730782e-03	1.278770e+00	7.745877e-02
3.370652901659354e-03	1.273681e+00	7.258438e-02
3.382511160587925e-03	1.268341e+00	6.732389e-02
3.394369419516496e-03	1.262750e+00	6.167728e-02
3.406227678445067e-03	1.256908e+00	5.564457e-02
3.418085937373638e-03	1.250816e+00	4.922574e-02
3.424363839159352e-03	1.247559e+00	4.574068e-02
3.430641740945066e-03	1.244281e+00	4.219851e-02
3.436919642730781e-03	1.240981e+00	3.859921e-02
3.443197544516495e-03	1.237661e+00	3.494280e-02
3.449475446302209e-03	1.234319e+00	3.122926e-02
3.455753348087923e-03	1.230956e+00	2.745860e-02
3.462031249873637e-03	1.227572e+00	2.363082e-02
3.476679687373637e-03	1.219702e+00	1.460021e-02
3.483655133802208e-03	1.215951e+00	1.023073e-02
3.490630580230779e-03	1.212236e+00	5.862562e-03
3.497606026659351e-03	1.208558e+00	1.495715e-03
3.504581473087922e-03	1.204915e+00	-2.869816e-03
3.511556919516494e-03	1.201309e+00	-7.234030e-03
3.518532365945065e-03	1.197739e+00	-1.159693e-02
3.525507812373636e-03	1.194206e+00	-1.595851e-02
3.535273437373636e-03	1.189345e+00	-2.203610e-02
3.545039062373636e-03	1.184662e+00	-2.797638e-02
3.554804687373635e-03	1.180158e+00	-3.377936e-02
3.564570312373635e-03	1.175833e+00	-3.944503e-02
3.574335937373635e-03	1.171687e+00	-4.497340e-02
3.584101562373635e-03	1.167720e+00	-5.036447e-02
3.593867187373635e-03	1.163931e+00	-5.561823e-02
3.609213169516492e-03	1.158429e+00	-6.350175e-02
3.624559151659348e-03	1.153642e+00	-7.064955e-02
3.639905133802205e-03	1.149571e+00	-7.706164e-02
3.655251115945062e-03	1.146216e+00	-8.273801e-02
3.670597098087919e-03	1.143577e+00	-8.767866e-02
3.685943080230776e-03	1.141654e+00	-9.188360e-02
3.701289062373632e-03	1.140446e+00	-9.535281e-02
3.720820312373632e-03	1.140254e+00	-9.829297e-02
3.740351562373631e-03	1.141256e+00	-9.976469e-02
3.759882812373631e-03	1.143450e+00	-9.976799e-02
3.779414062373631e-03	1.146838e+00	-9.830285e-02
3.798945312373630e-03	1.151419e+00	-9.536929e-02
3.818476562373630e-03	1.157193e+00	-9.096730e-02
3.838007812373629e-03	1.164160e+00	-8.509687e-02
3.849168526659343e-03	1.168539e+00	-8.114810e-02
3.860329240945057e-03	1.173139e+00	-7.685812e-02
3.871489955230771e-03	1.177960e+00	-7.222694e-02
3.882650669516486e-03	1.183002e+00	-6.725456e-02
3.893811383802200e-03	1.188265e+00	-6.194098e-02
3.904972098087914e-03	1.193749e+00	-5.628620e-02
3.916132812373628e-03	1.199454e+00	-5.029021e-02
3.922410714159342e-03	1.202699e+00	-4.682848e-02
3.928688615945056e-03	1.205967e+00	-4.330786e-02
3.934966517730770e-03	1.209257e+00	-3.972836e-02
3.941244419516484e-03	1.212571e+00	-3.608996e-02
3.947522321302199e-03	1.215908e+00	-3.239268e-02
3.953800223087912e-03	1.219267e+00	-2.863650e-02
3.960078124873627e-03	1.222650e+00	-2.482144e-02
3.974726562373626e-03	1.230522e+00	-1.581311e-02
3.980306919516483e-03	1.233523e+00	-1.233123e-02
3.985887276659341e-03	1.236505e+00	-8.844911e-03
3.991467633802198e-03	1.239469e+00	-5.354168e-03
3.997047990945054e-03	1.242414e+00	-1.858996e-03
4.002628348087911e-03	1.245340e+00	1.640604e-03
4.008208705230769e-03	1.248248e+00	5.144632e-03
4.013789062373626e-03	1.251137e+00	8.653088e-03
4.022159598087911e-03	1.255425e+00	1.391353e-02
4.030530133802197e-03	1.259603e+00	1.910024e-02
4.038900669516482e-03	1.263670e+00	2.421321e-02
4.047271205230768e-03	1.267628e+00	2.925245e-02
4.055641740945053e-03	1.271476e+00	3.421796e-02
4.064012276659339e-03	1.275213e+00	3.910974e-02
4.072382812373624e-03	1.278841e+00	4.392778e-02
4.086333705230767e-03	1.284596e+00	5.174920e-02
4.100284598087909e-03	1.289810e+00	5.904513e-02
4.114235490945052e-03	1.294485e+00	6.581557e-02
4.128186383802195e-03	1.298620e+00	7.206053e-02
4.142137276659338e-03	1.302214e+00	7.778000e-02
4.156088169516479e-03	1.305269e+00	8.297399e-02
4.170039062373622e-03	1.307784e+00	8.764249e-02
4.193058035587907e-03	1.310326e+00	9.371351e-02
4.216077008802193e-03	1.311162e+00	9.774329e-02
4.239095982016478e-03	1.310292e+00	9.973183e-02
4.262114955230763e-03	1.307716e+00	9.967913e-02
4.285133928445048e-03	1.303433e+00	9.758518e-02
4.308152901659334e-03	1.297445e+00	9.345000e-02
4.331171874873619e-03	1.289750e+00	8.727358e-02
4.343030133802190e-03	1.285272e+00	8.332820e-02
4.354888392730761e-03	1.280535e+00	7.898717e-02
4.366746651659333e-03	1.275537e+00	7.425048e-02
4.378604910587903e-03	1.270278e+00	6.911812e-02
4.390463169516474e-03	1.264759e+00	6.359011e-02
4.402321428445046e-03	1.258980e+00	5.766644e-02
4.414179687373617e-03	1.252939e+00	5.134711e-02
4.420457589159332e-03	1.249706e+00	4.790922e-02
4.426735490945045e-03	1.246447e+00	4.441069e-02
4.433013392730760e-03	1.243164e+00	4.085151e-02
4.439291294516473e-03	1.239857e+00	3.723168e-02
4.445569196302188e-03	1.236525e+00	3.355121e-02
4.451847098087902e-03	1.233169e+00	2.981009e-02
4.458124999873616e-03	1.229788e+00	2.600832e-02
4.461612723087901e-03	1.227911e+00	2.388368e-02
4.465100446302188e-03	1.226036e+00	2.175014e-02
4.468588169516473e-03	1.224162e+00	1.960771e-02
4.472075892730759e-03	1.222290e+00	1.745639e-02
4.475563615945044e-03	1.220418e+00	1.529616e-02
4.479051339159330e-03	1.218548e+00	1.312705e-02
4.482539062373616e-03	1.216679e+00	1.094904e-02
4.488816964159330e-03	1.213318e+00	7.005405e-03
4.495094865945044e-03	1.209989e+00	3.066177e-03
4.501372767730758e-03	1.206692e+00	-8.686486e-04
4.507650669516472e-03	1.203427e+00	-4.799072e-03
4.513928571302186e-03	1.200194e+00	-8.725093e-03
4.520206473087900e-03	1.196994e+00	-1.264671e-02
4.526484374873615e-03	1.193825e+00	-1.656393e-02
4.536249999873614e-03	1.188976e+00	-2.263414e-02
4.546015624873614e-03	1.184306e+00	-2.856491e-02
