time	V(vb)	V(n002)
0.000000000000000e+000	2.356302e+000	0.000000e+000
4.464285766455794e-010	2.356316e+000	2.804993e-006
8.928571532911587e-010	2.356328e+000	5.609987e-006
1.339285729936738e-009	2.356336e+000	8.414980e-006
1.785714306582317e-009	2.356342e+000	1.121997e-005
2.232142883227897e-009	2.356345e+000	1.402497e-005
2.678571459873476e-009	2.356344e+000	1.682996e-005
3.125000036519054e-009	2.356341e+000	1.963495e-005
3.125000036519056e-008	2.356346e+000	1.963495e-004
5.937500069386205e-008	2.356357e+000	3.730641e-004
8.750000102253355e-008	2.356375e+000	5.497787e-004
1.156250013512051e-007	2.356400e+000	7.264932e-004
1.437500016798766e-007	2.356432e+000	9.032077e-004
1.718750020085481e-007	2.356470e+000	1.079922e-003
2.000000023372195e-007	2.356516e+000	1.256637e-003
4.000000046744390e-007	2.356876e+000	2.513272e-003
8.000000093488779e-007	2.357728e+000	5.026527e-003
4.390178590126329e-006	2.365835e+000	2.760812e-002
7.980357170903779e-006	2.373929e+000	5.014748e-002
1.157053575168123e-005	2.382008e+000	7.264462e-002
1.516071433245868e-005	2.390074e+000	9.509953e-002
1.875089291323613e-005	2.398125e+000	1.175122e-001
2.234107149401359e-005	2.406161e+000	1.398827e-001
2.593125007479103e-005	2.414184e+000	1.622109e-001
3.569687507479103e-005	2.436002e+000	2.229551e-001
4.546250007479103e-005	2.457322e+000	2.823170e-001
5.522812507479104e-005	2.478144e+000	3.402965e-001
6.499375007479105e-005	2.498468e+000	3.968937e-001
7.475937507479104e-005	2.518294e+000	4.521086e-001
8.452500007479105e-005	2.537623e+000	5.059412e-001
9.429062507479103e-005	2.556454e+000	5.583914e-001
1.096366072176482e-004	2.584698e+000	6.370690e-001
1.249825893605054e-004	2.610298e+000	7.083748e-001
1.403285715033625e-004	2.633254e+000	7.723087e-001
1.556745536462197e-004	2.653566e+000	8.288709e-001
1.710205357890768e-004	2.671234e+000	8.780612e-001
1.863665179319340e-004	2.686259e+000	9.198797e-001
2.017125000747911e-004	2.698639e+000	9.543264e-001
2.240339286462197e-004	2.710008e+000	9.858807e-001
2.463553572176483e-004	2.714605e+000	9.985494e-001
2.686767857890769e-004	2.712431e+000	9.923326e-001
2.909982143605055e-004	2.703487e+000	9.672303e-001
3.133196429319341e-004	2.687771e+000	9.232425e-001
3.356410715033627e-004	2.665285e+000	8.603691e-001
3.579625000747912e-004	2.636028e+000	7.786102e-001
3.698207590033627e-004	2.618238e+000	7.289293e-001
3.816790179319341e-004	2.599276e+000	6.759915e-001
3.935372768605056e-004	2.579140e+000	6.197968e-001
4.053955357890770e-004	2.557830e+000	5.603452e-001
4.172537947176484e-004	2.535347e+000	4.976368e-001
4.291120536462199e-004	2.511691e+000	4.316714e-001
4.409703125747913e-004	2.486861e+000	3.624492e-001
4.479457590033628e-004	2.472011e+000	3.210621e-001
4.549212054319342e-004	2.457011e+000	2.792614e-001
4.618966518605056e-004	2.441859e+000	2.370472e-001
4.688720982890770e-004	2.426557e+000	1.944194e-001
4.758475447176485e-004	2.411103e+000	1.513780e-001
4.828229911462199e-004	2.395498e+000	1.079230e-001
4.897984375747913e-004	2.379743e+000	6.405442e-002
5.093296875747914e-004	2.335680e+000	-5.858659e-002
5.170026786462200e-004	2.318316e+000	-1.069016e-001
5.246756697176485e-004	2.301136e+000	-1.546941e-001
5.323486607890771e-004	2.284141e+000	-2.019642e-001
5.400216518605057e-004	2.267330e+000	-2.487117e-001
5.476946429319343e-004	2.250704e+000	-2.949368e-001
5.553676340033628e-004	2.234263e+000	-3.406394e-001
5.630406250747914e-004	2.218006e+000	-3.858195e-001
5.755964286462200e-004	2.191914e+000	-4.583083e-001
5.881522322176485e-004	2.167201e+000	-5.269495e-001
6.007080357890771e-004	2.143866e+000	-5.917432e-001
6.132638393605058e-004	2.121910e+000	-6.526893e-001
6.258196429319344e-004	2.101332e+000	-7.097879e-001
6.383754465033630e-004	2.082133e+000	-7.630389e-001
6.509312500747915e-004	2.064313e+000	-8.124424e-001
6.809256697176487e-004	2.029784e+000	-9.080729e-001
7.109200893605058e-004	2.007521e+000	-9.696592e-001
7.409145090033631e-004	1.997522e+000	-9.972013e-001
7.709089286462202e-004	1.999789e+000	-9.906992e-001
8.009033482890774e-004	2.014320e+000	-9.501530e-001
8.308977679319346e-004	2.041116e+000	-8.755625e-001
8.608921875747917e-004	2.080178e+000	-7.669279e-001
8.727504465033631e-004	2.098419e+000	-7.162089e-001
8.846087054319346e-004	2.117801e+000	-6.623156e-001
8.964669643605060e-004	2.138323e+000	-6.052478e-001
9.083252232890774e-004	2.159985e+000	-5.450056e-001
9.201834822176489e-004	2.182788e+000	-4.815890e-001
9.320417411462203e-004	2.206731e+000	-4.149980e-001
9.439000000747918e-004	2.231814e+000	-3.452327e-001
9.508754465033632e-004	2.246789e+000	-3.035758e-001
9.578508929319346e-004	2.261900e+000	-2.615399e-001
9.648263393605060e-004	2.277145e+000	-2.191250e-001
9.718017857890773e-004	2.292526e+000	-1.763310e-001
9.787772322176487e-004	2.308042e+000	-1.331579e-001
9.857526786462201e-004	2.323693e+000	-8.960582e-002
9.927281250747915e-004	2.339479e+000	-4.567464e-002
1.007376562574791e-003	2.372536e+000	4.633172e-002
1.014352009003362e-003	2.388318e+000	9.026091e-002
1.021327455431934e-003	2.403962e+000	1.338098e-001
1.028302901860505e-003	2.419468e+000	1.769784e-001
1.035278348289076e-003	2.434837e+000	2.197667e-001
1.042253794717648e-003	2.450069e+000	2.621748e-001
1.049229241146219e-003	2.465162e+000	3.042025e-001
1.056204687574790e-003	2.480119e+000	3.458499e-001
1.068760491146219e-003	2.506647e+000	4.197318e-001
1.081316294717647e-003	2.531869e+000	4.899773e-001
1.093872098289075e-003	2.555785e+000	5.565863e-001
1.106427901860503e-003	2.578395e+000	6.195590e-001
1.118983705431932e-003	2.599699e+000	6.788952e-001
1.131539509003360e-003	2.619696e+000	7.345949e-001
1.144095312574788e-003	2.638387e+000	7.866583e-001
1.174787276860502e-003	2.676132e+000	8.917527e-001
1.205479241146216e-003	2.701116e+000	9.612483e-001
1.236171205431929e-003	2.713340e+000	9.951452e-001
1.266863169717643e-003	2.712802e+000	9.934433e-001
1.297555134003357e-003	2.699504e+000	9.561427e-001
1.328247098289070e-003	2.673444e+000	8.832433e-001
1.358939062574784e-003	2.634624e+000	7.747452e-001
1.370797321503355e-003	2.616710e+000	7.247164e-001
1.382655580431926e-003	2.597632e+000	6.714580e-001
1.394513839360497e-003	2.577390e+000	6.149702e-001
1.406372098289068e-003	2.555985e+000	5.552528e-001
1.418230357217640e-003	2.533416e+000	4.923060e-001
1.430088616146211e-003	2.509684e+000	4.261296e-001
1.441946875074782e-003	2.484787e+000	3.567237e-001
1.448224776860496e-003	2.471416e+000	3.194570e-001
1.454502678646210e-003	2.457917e+000	2.818412e-001
1.460780580431924e-003	2.444291e+000	2.438763e-001
1.467058482217639e-003	2.430538e+000	2.055623e-001
1.473336384003353e-003	2.416657e+000	1.668993e-001
1.479614285789067e-003	2.402649e+000	1.278872e-001
1.485892187574781e-003	2.388513e+000	8.852597e-002
1.500540625074781e-003	2.355493e+000	-3.396841e-003
1.505423437574781e-003	2.344446e+000	-3.414167e-002
1.510306250074780e-003	2.333435e+000	-6.478256e-002
1.515189062574780e-003	2.322460e+000	-9.531951e-002
1.520071875074780e-003	2.311521e+000	-1.257525e-001
1.524954687574780e-003	2.300619e+000	-1.560816e-001
1.529837500074780e-003	2.289752e+000	-1.863067e-001
1.534720312574780e-003	2.278921e+000	-2.164279e-001
1.545183482217637e-003	2.255789e+000	-2.807447e-001
1.555646651860494e-003	2.233323e+000	-3.431978e-001
1.566109821503351e-003	2.211521e+000	-4.037872e-001
1.576572991146208e-003	2.190384e+000	-4.625129e-001
1.587036160789065e-003	2.169912e+000	-5.193749e-001
1.597499330431922e-003	2.150106e+000	-5.743733e-001
1.607962500074778e-003	2.130964e+000	-6.275079e-001
1.624703571503349e-003	2.102186e+000	-7.073486e-001
1.641444642931921e-003	2.076809e+000	-7.777342e-001
1.658185714360492e-003	2.054831e+000	-8.386646e-001
1.674926785789063e-003	2.036254e+000	-8.901400e-001
1.691667857217634e-003	2.021076e+000	-9.321602e-001
1.708408928646205e-003	2.009299e+000	-9.647253e-001
1.725150000074776e-003	2.000921e+000	-9.878353e-001
1.745378794717633e-003	1.997054e+000	-9.984172e-001
1.765607589360489e-003	1.998663e+000	-9.938028e-001
1.785836384003346e-003	2.005747e+000	-9.739923e-001
1.806065178646203e-003	2.018307e+000	-9.389855e-001
1.826293973289060e-003	2.036343e+000	-8.887825e-001
1.846522767931916e-003	2.059854e+000	-8.233832e-001
1.866751562574773e-003	2.088841e+000	-7.427878e-001
1.878609821503344e-003	2.107811e+000	-6.900446e-001
1.890468080431915e-003	2.127859e+000	-6.342952e-001
1.902326339360486e-003	2.148988e+000	-5.755395e-001
1.914184598289058e-003	2.171196e+000	-5.137776e-001
1.926042857217629e-003	2.194484e+000	-4.490095e-001
1.937901116146200e-003	2.218852e+000	-3.812351e-001
1.949759375074771e-003	2.244299e+000	-3.104545e-001
1.956037276860485e-003	2.257915e+000	-2.725763e-001
1.962315178646200e-003	2.271629e+000	-2.344236e-001
1.968593080431914e-003	2.285440e+000	-1.959966e-001
1.974870982217628e-003	2.299350e+000	-1.572951e-001
1.981148884003342e-003	2.313357e+000	-1.183192e-001
1.987426785789056e-003	2.327461e+000	-7.906897e-002
1.993704687574770e-003	2.341664e+000	-3.954430e-002
2.008353125074770e-003	2.374720e+000	5.246014e-002
2.015328571503341e-003	2.390495e+000	9.636994e-002
2.022304017931912e-003	2.406128e+000	1.398879e-001
2.029279464360484e-003	2.421619e+000	1.830141e-001
2.036254910789055e-003	2.436968e+000	2.257485e-001
2.043230357217627e-003	2.452176e+000	2.680910e-001
2.050205803646198e-003	2.467241e+000	3.100417e-001
2.057181250074769e-003	2.482166e+000	3.516006e-001
2.069737053646197e-003	2.508625e+000	4.252918e-001
2.082292857217626e-003	2.533768e+000	4.953160e-001
2.094848660789054e-003	2.557594e+000	5.616731e-001
2.107404464360482e-003	2.580102e+000	6.243633e-001
2.119960267931911e-003	2.601293e+000	6.833864e-001
2.132516071503339e-003	2.621167e+000	7.387426e-001
2.145071875074767e-003	2.639724e+000	7.904317e-001
2.175763839360481e-003	2.677074e+000	8.944225e-001
2.206455803646194e-003	2.701663e+000	9.628172e-001
2.237147767931908e-003	2.713493e+000	9.956160e-001
2.267839732217622e-003	2.712563e+000	9.928188e-001
2.298531696503335e-003	2.698873e+000	9.544255e-001
2.329223660789049e-003	2.672423e+000	8.804363e-001
2.359915625074763e-003	2.633213e+000	7.708511e-001
2.371773884003334e-003	2.615174e+000	7.204762e-001
2.383632142931905e-003	2.595981e+000	6.668994e-001
2.395490401860476e-003	2.575635e+000	6.101205e-001
2.407348660789047e-003	2.554135e+000	5.501396e-001
2.419206919717619e-003	2.531481e+000	4.869567e-001
2.431065178646190e-003	2.507673e+000	4.205718e-001
2.442923437574761e-003	2.482711e+000	3.509848e-001
2.449201339360475e-003	2.469311e+000	3.136367e-001
2.455479241146189e-003	2.455786e+000	2.759488e-001
2.461757142931903e-003	2.442137e+000	2.379211e-001
2.468035044717618e-003	2.428364e+000	1.995537e-001
2.474312946503332e-003	2.414467e+000	1.608464e-001
2.480590848289046e-003	2.400446e+000	1.217993e-001
2.486868750074760e-003	2.386301e+000	8.241250e-002
2.511282812574759e-003	2.331244e+000	-7.083264e-002
2.518955803646188e-003	2.313898e+000	-1.190944e-001
2.526628794717616e-003	2.296746e+000	-1.668061e-001
2.534301785789045e-003	2.279789e+000	-2.139675e-001
2.541974776860473e-003	2.263026e+000	-2.605789e-001
2.549647767931901e-003	2.246459e+000	-3.066400e-001
2.557320759003330e-003	2.230085e+000	-3.521510e-001
2.564993750074758e-003	2.213907e+000	-3.971119e-001
2.578247098289044e-003	2.186515e+000	-4.732051e-001
2.591500446503329e-003	2.160712e+000	-5.448681e-001
2.604753794717615e-003	2.136497e+000	-6.121007e-001
2.618007142931900e-003	2.113870e+000	-6.749030e-001
2.631260491146185e-003	2.092830e+000	-7.332749e-001
2.644513839360471e-003	2.073379e+000	-7.872165e-001
2.657767187574756e-003	2.055515e+000	-8.367279e-001
2.686366517931898e-003	2.024870e+000	-9.215827e-001
2.714965848289041e-003	2.005413e+000	-9.753851e-001
2.743565178646183e-003	1.997144e+000	-9.981350e-001
2.772164509003325e-003	2.000062e+000	-9.898325e-001
2.800763839360467e-003	2.014168e+000	-9.504775e-001
2.829363169717610e-003	2.039461e+000	-8.800701e-001
2.857962500074752e-003	2.075943e+000	-7.786102e-001
2.869820759003323e-003	2.093810e+000	-7.289293e-001
2.881679017931894e-003	2.112848e+000	-6.759915e-001
2.893537276860465e-003	2.133056e+000	-6.197968e-001
2.905395535789037e-003	2.154435e+000	-5.603452e-001
2.917253794717608e-003	2.176983e+000	-4.976368e-001
2.929112053646179e-003	2.200702e+000	-4.316714e-001
2.940970312574750e-003	2.225591e+000	-3.624492e-001
2.947945759003322e-003	2.240469e+000	-3.210621e-001
2.954921205431893e-003	2.255496e+000	-2.792614e-001
2.961896651860464e-003	2.270669e+000	-2.370472e-001
2.968872098289035e-003	2.285991e+000	-1.944194e-001
2.975847544717607e-003	2.301460e+000	-1.513780e-001
2.982822991146178e-003	2.317076e+000	-1.079230e-001
2.989798437574749e-003	2.332840e+000	-6.405442e-002
3.004446875074749e-003	2.365894e+000	2.793691e-002
3.010724776860463e-003	2.380102e+000	6.748633e-002
3.017002678646177e-003	2.394218e+000	1.067791e-001
3.023280580431891e-003	2.408241e+000	1.458153e-001
3.029558482217606e-003	2.422170e+000	1.845948e-001
3.035836384003320e-003	2.436007e+000	2.231177e-001
3.042114285789034e-003	2.449751e+000	2.613840e-001
3.048392187574748e-003	2.463401e+000	2.993937e-001
3.060250446503319e-003	2.488926e+000	3.704746e-001
3.072108705431890e-003	2.513389e+000	4.386033e-001
3.083966964360461e-003	2.536792e+000	5.037797e-001
3.095825223289033e-003	2.559133e+000	5.660037e-001
3.107683482217604e-003	2.580414e+000	6.252754e-001
3.119541741146175e-003	2.600634e+000	6.815948e-001
3.131400000074746e-003	2.619792e+000	7.349619e-001
3.153023884003317e-003	2.651056e+000	8.220451e-001
3.174647767931888e-003	2.676080e+000	8.917158e-001
3.196271651860459e-003	2.694862e+000	9.439739e-001
3.217895535789030e-003	2.707405e+000	9.788195e-001
3.239519419717601e-003	2.713707e+000	9.962525e-001
3.261143303646172e-003	2.713769e+000	9.962730e-001
3.282767187574743e-003	2.707591e+000	9.788810e-001
3.298810714360457e-003	2.698033e+000	9.520922e-001
3.314854241146171e-003	2.685419e+000	9.167887e-001
3.330897767931885e-003	2.669748e+000	8.729704e-001
3.346941294717599e-003	2.651019e+000	8.206374e-001
3.362984821503313e-003	2.629233e+000	7.597897e-001
3.379028348289027e-003	2.604390e+000	6.904273e-001
3.395071875074741e-003	2.576490e+000	6.125501e-001
3.404837500074740e-003	2.558521e+000	5.624148e-001
3.414603125074740e-003	2.539969e+000	5.106675e-001
3.424368750074740e-003	2.520835e+000	4.573082e-001
3.434134375074740e-003	2.501118e+000	4.023371e-001
3.443900000074739e-003	2.480818e+000	3.457539e-001
3.453665625074739e-003	2.459936e+000	2.875589e-001
3.463431250074739e-003	2.438471e+000	2.277519e-001
3.467616517931882e-003	2.429236e+000	2.020254e-001
3.471801785789025e-003	2.419965e+000	1.762041e-001
3.475987053646167e-003	2.410660e+000	1.502879e-001
3.480172321503310e-003	2.401320e+000	1.242769e-001
3.484357589360453e-003	2.391945e+000	9.817102e-002
3.488542857217596e-003	2.382534e+000	7.197026e-002
3.492728125074738e-003	2.373089e+000	4.567464e-002
3.496215848289024e-003	2.365213e+000	2.374799e-002
3.499703571503310e-003	2.357340e+000	1.836224e-003
3.503191294717596e-003	2.349473e+000	-2.006066e-002
3.506679017931881e-003	2.341610e+000	-4.194267e-002
3.510166741146167e-003	2.333752e+000	-6.380980e-002
3.513654464360452e-003	2.325899e+000	-8.566205e-002
3.517142187574738e-003	2.318050e+000	-1.074994e-001
3.525512723289024e-003	2.299190e+000	-1.599654e-001
3.533883259003309e-003	2.280611e+000	-2.116383e-001
3.542253794717595e-003	2.262314e+000	-2.625180e-001
3.550624330431880e-003	2.244298e+000	-3.126046e-001
3.558994866146165e-003	2.226563e+000	-3.618981e-001
3.567365401860451e-003	2.209110e+000	-4.103985e-001
3.575735937574737e-003	2.191938e+000	-4.581057e-001
3.589686830431879e-003	2.164107e+000	-5.353964e-001
3.603637723289022e-003	2.138203e+000	-6.073173e-001
3.617588616146164e-003	2.114226e+000	-6.738684e-001
3.631539509003307e-003	2.092174e+000	-7.350497e-001
3.645490401860449e-003	2.072050e+000	-7.908612e-001
3.659441294717592e-003	2.053852e+000	-8.413029e-001
3.673392187574735e-003	2.037580e+000	-8.863748e-001
3.699898884003306e-003	2.014382e+000	-9.505645e-001
3.726405580431876e-003	2.000810e+000	-9.880419e-001
3.752912276860447e-003	1.996862e+000	-9.988071e-001
3.779418973289018e-003	2.002538e+000	-9.828600e-001
3.805925669717589e-003	2.017840e+000	-9.402007e-001
3.832432366146160e-003	2.042766e+000	-8.708291e-001
3.858939062574731e-003	2.077317e+000	-7.747452e-001
3.870797321503302e-003	2.095311e+000	-7.247164e-001
3.882655580431873e-003	2.114464e+000	-6.714580e-001
3.894513839360444e-003	2.134777e+000	-6.149702e-001
3.906372098289015e-003	2.156251e+000	-5.552528e-001
3.918230357217586e-003	2.178885e+000	-4.923060e-001
3.930088616146158e-003	2.202680e+000	-4.261296e-001
3.941946875074729e-003	2.227634e+000	-3.567237e-001
3.948922321503300e-003	2.242546e+000	-3.152451e-001
3.955897767931872e-003	2.257601e+000	-2.733645e-001
3.962873214360443e-003	2.272799e+000	-2.310817e-001
3.969848660789014e-003	2.288141e+000	-1.883969e-001
3.976824107217585e-003	2.303626e+000	-1.453100e-001
3.983799553646156e-003	2.319255e+000	-1.018210e-001
3.990775000074728e-003	2.335027e+000	-5.792993e-002
3.994262723289013e-003	2.342902e+000	-3.601427e-002
3.997750446503299e-003	2.350773e+000	-1.410759e-002
4.001238169717584e-003	2.358641e+000	7.790087e-003
4.004725892931871e-003	2.366505e+000	2.967878e-002
4.008213616146156e-003	2.374366e+000	5.155847e-002
4.011701339360442e-003	2.382223e+000	7.342918e-002
4.015189062574727e-003	2.390077e+000	9.529089e-002
4.023559598289012e-003	2.408953e+000	1.478404e-001
4.031930134003299e-003	2.427555e+000	1.996292e-001
4.040300669717584e-003	2.445883e+000	2.506573e-001
4.048671205431870e-003	2.463936e+000	3.009247e-001
4.057041741146155e-003	2.481715e+000	3.504315e-001
4.065412276860441e-003	2.499220e+000	3.991776e-001
4.073782812574726e-003	2.516450e+000	4.471630e-001
4.087733705431869e-003	2.544393e+000	5.249958e-001
4.101684598289011e-003	2.570433e+000	5.975255e-001
4.115635491146154e-003	2.594570e+000	6.647520e-001
4.129586384003296e-003	2.616804e+000	7.266754e-001
4.143537276860439e-003	2.637134e+000	7.832957e-001
4.157488169717581e-003	2.655561e+000	8.346128e-001
4.171439062574724e-003	2.672085e+000	8.806267e-001
4.197945759003295e-003	2.695881e+000	9.468319e-001
4.224452455431866e-003	2.710091e+000	9.862933e-001
4.250959151860437e-003	2.714713e+000	9.990111e-001
4.277465848289007e-003	2.709749e+000	9.849853e-001
4.303972544717578e-003	2.695198e+000	9.442158e-001
4.330479241146149e-003	2.671060e+000	8.767027e-001
4.356985937574720e-003	2.637334e+000	7.824458e-001
4.368844196503291e-003	2.619671e+000	7.331147e-001
4.380702455431863e-003	2.600824e+000	6.804994e-001
4.392560714360434e-003	2.580794e+000	6.246000e-001
4.404418973289004e-003	2.559582e+000	5.654165e-001
4.416277232217576e-003	2.537186e+000	5.029488e-001
4.428135491146147e-003	2.513607e+000	4.371970e-001
4.439993750074718e-003	2.488844e+000	3.681611e-001
4.446969196503290e-003	2.474029e+000	3.268670e-001
4.453944642931861e-003	2.459058e+000	2.851479e-001
4.460920089360432e-003	2.443932e+000	2.430037e-001
4.467895535789003e-003	2.428651e+000	2.004345e-001
4.474870982217574e-003	2.413214e+000	1.574402e-001
4.481846428646146e-003	2.397623e+000	1.140209e-001
4.488821875074717e-003	2.381876e+000	7.017650e-002
4.513235937574717e-003	2.326817e+000	-8.306802e-002
4.520908928646145e-003	2.309492e+000	-1.312693e-001
4.528581919717573e-003	2.292371e+000	-1.788929e-001
4.536254910789002e-003	2.275455e+000	-2.259387e-001
4.543927901860431e-003	2.258743e+000	-2.724067e-001
4.551600892931859e-003	2.242236e+000	-3.182970e-001
4.559273884003287e-003	2.225933e+000	-3.636096e-001
4.566946875074716e-003	2.209835e+000	-4.083444e-001
4.580200223289001e-003	2.182609e+000	-4.839767e-001
4.593453571503287e-003	2.156993e+000	-5.551145e-001
4.606706919717572e-003	2.132989e+000	-6.217577e-001
4.619960267931858e-003	2.110596e+000	-6.839064e-001
4.633213616146143e-003	2.089814e+000	-7.415605e-001
4.646466964360429e-003	2.070644e+000	-7.947200e-001
4.659720312574714e-003	2.053084e+000	-8.433850e-001
