time	V(n002)	V(n003)
0.000000000000000e+000	0.000000e+000	4.802019e-013
7.142857099446638e-010	4.487989e-005	8.804709e-006
1.428571419889328e-009	8.975979e-005	1.569933e-005
2.142857129833992e-009	1.346397e-004	2.068388e-005
2.857142839778655e-009	1.795196e-004	2.375833e-005
3.571428549723319e-009	2.243995e-004	2.492271e-005
4.285714259667983e-009	2.692794e-004	2.417699e-005
4.999999969612645e-009	3.141593e-004	2.152120e-005
9.999999939225290e-009	6.283185e-004	2.916141e-005
1.999999987845058e-008	1.256637e-003	5.911034e-005
3.999999975690116e-008	2.513272e-003	1.703281e-004
7.999999951380232e-008	5.026527e-003	5.520456e-004
1.599999990276046e-007	1.005293e-002	1.720299e-003
3.199999980552093e-007	2.010484e-002	4.811731e-003
6.399999961104186e-007	4.020155e-002	1.189040e-002
1.128281246110419e-006	7.090413e-002	2.318073e-002
1.616562496110419e-006	1.014685e-001	3.442709e-002
2.104843746110419e-006	1.318945e-001	4.562946e-002
2.593124996110419e-006	1.621823e-001	5.678786e-002
3.081406246110419e-006	1.923318e-001	6.790228e-002
3.569687496110420e-006	2.223431e-001	7.897272e-002
4.057968746110418e-006	2.522161e-001	8.999918e-002
5.174040174681848e-006	3.201643e-001	1.150680e-001
6.290111603253278e-006	3.857668e-001	1.392825e-001
7.406183031824708e-006	4.490234e-001	1.626424e-001
8.522254460396138e-006	5.099342e-001	1.851479e-001
9.638325888967567e-006	5.684992e-001	2.067990e-001
1.075439731753900e-005	6.247183e-001	2.275956e-001
1.187046874611043e-005	6.785917e-001	2.475377e-001
1.368408481753900e-005	7.593918e-001	2.774837e-001
1.549770088896757e-005	8.285460e-001	3.031634e-001
1.731131696039615e-005	8.860542e-001	3.245770e-001
1.912493303182472e-005	9.319165e-001	3.417245e-001
2.093854910325329e-005	9.661329e-001	3.546058e-001
2.275216517468187e-005	9.887033e-001	3.632209e-001
2.456578124611044e-005	9.996278e-001	3.675698e-001
2.603062499611044e-005	9.979041e-001	3.672053e-001
2.749546874611044e-005	9.877328e-001	3.637370e-001
2.916957588896758e-005	9.645535e-001	3.555354e-001
3.084368303182473e-005	9.319227e-001	3.438436e-001
3.251779017468187e-005	8.898403e-001	3.286618e-001
3.419189731753902e-005	8.383064e-001	3.099899e-001
3.586600446039616e-005	7.773210e-001	2.878280e-001
3.754011160325331e-005	7.068841e-001	2.621760e-001
3.921421874611045e-005	6.269956e-001	2.330339e-001
4.026053571039616e-005	5.738348e-001	2.136123e-001
4.130685267468188e-005	5.188128e-001	1.934918e-001
4.235316963896759e-005	4.619297e-001	1.726726e-001
4.339948660325331e-005	4.031854e-001	1.511545e-001
4.444580356753903e-005	3.425800e-001	1.289376e-001
4.549212053182474e-005	2.801134e-001	1.060219e-001
4.653843749611045e-005	2.157857e-001	8.240739e-002
4.702671874611045e-005	1.856604e-001	7.134213e-002
4.751499999611045e-005	1.554318e-001	6.023524e-002
4.800328124611045e-005	1.250999e-001	4.908669e-002
4.849156249611045e-005	9.466470e-002	3.789651e-002
4.897984374611046e-005	6.412615e-002	2.666467e-002
4.946812499611046e-005	3.348427e-002	1.539119e-002
4.995640624611046e-005	2.739073e-003	4.076070e-003
5.037493303182474e-005	-2.360086e-002	-5.620776e-003
5.079345981753903e-005	-4.987917e-002	-1.529764e-002
5.121198660325331e-005	-7.609586e-002	-2.495452e-002
5.163051338896760e-005	-1.022509e-001	-3.459141e-002
5.204904017468189e-005	-1.283444e-001	-4.420832e-002
5.246756696039617e-005	-1.543762e-001	-5.380524e-002
5.288609374611046e-005	-1.803464e-001	-6.338219e-002
5.386265624611046e-005	-2.408594e-001	-8.570881e-002
5.483921874611046e-005	-2.999262e-001	-1.075163e-001
5.581578124611046e-005	-3.575467e-001	-1.288046e-001
5.679234374611046e-005	-4.137210e-001	-1.495738e-001
5.776890624611046e-005	-4.684491e-001	-1.698239e-001
5.874546874611046e-005	-5.217310e-001	-1.895548e-001
5.972203124611046e-005	-5.735666e-001	-2.087665e-001
6.132638392468190e-005	-6.546321e-001	-2.388544e-001
6.293073660325332e-005	-7.274505e-001	-2.659229e-001
6.453508928182475e-005	-7.920218e-001	-2.899719e-001
6.613944196039618e-005	-8.483461e-001	-3.110014e-001
6.774379463896762e-005	-8.964233e-001	-3.290115e-001
6.934814731753904e-005	-9.362535e-001	-3.440021e-001
7.095249999611047e-005	-9.678366e-001	-3.559733e-001
7.318464285325333e-005	-9.923326e-001	-3.654762e-001
7.541678571039618e-005	-9.981416e-001	-3.680663e-001
7.764892856753905e-005	-9.852637e-001	-3.637437e-001
7.988107142468191e-005	-9.536987e-001	-3.525084e-001
8.211321428182477e-005	-9.034468e-001	-3.343603e-001
8.434535713896763e-005	-8.345079e-001	-3.092994e-001
8.657749999611048e-005	-7.468820e-001	-2.773257e-001
8.776332588896762e-005	-6.944712e-001	-2.581529e-001
8.894915178182477e-005	-6.390260e-001	-2.378494e-001
9.013497767468191e-005	-5.805461e-001	-2.164151e-001
9.132080356753906e-005	-5.190318e-001	-1.938500e-001
9.250662946039620e-005	-4.544829e-001	-1.701541e-001
9.369245535325335e-005	-3.868994e-001	-1.453275e-001
9.487828124611049e-005	-3.162814e-001	-1.193701e-001
9.550607142468191e-005	-2.784746e-001	-1.054682e-001
9.613386160325335e-005	-2.403841e-001	-9.145850e-002
9.676165178182478e-005	-2.020097e-001	-7.734104e-002
9.738944196039620e-005	-1.633516e-001	-6.311580e-002
9.801723213896764e-005	-1.244098e-001	-4.878277e-002
9.864502231753907e-005	-8.518409e-002	-3.434196e-002
9.927281249611049e-005	-4.567464e-002	-1.979337e-002
9.962158481753907e-005	-2.374800e-002	-1.171799e-002
9.997035713896763e-005	-1.836229e-003	-3.647150e-003
1.003191294603962e-004	2.006066e-002	4.419160e-003
1.006679017818248e-004	4.194267e-002	1.248094e-002
1.010166741032534e-004	6.380980e-002	2.053818e-002
1.013654464246819e-004	8.566204e-002	2.859090e-002
1.017142187461105e-004	1.074994e-001	3.663908e-002
1.025512723175391e-004	1.599654e-001	5.597927e-002
1.033883258889676e-004	2.116383e-001	7.503266e-002
1.042253794603962e-004	2.625180e-001	9.379925e-002
1.050624330318248e-004	3.126046e-001	1.122790e-001
1.058994866032534e-004	3.618981e-001	1.304720e-001
1.067365401746819e-004	4.103985e-001	1.483782e-001
1.075735937461105e-004	4.581057e-001	1.659976e-001
1.089686830318248e-004	5.353964e-001	1.945570e-001
1.103637723175391e-004	6.073173e-001	2.211536e-001
1.117588616032534e-004	6.738684e-001	2.457877e-001
1.131539508889677e-004	7.350497e-001	2.684590e-001
1.145490401746819e-004	7.908612e-001	2.891677e-001
1.159441294603962e-004	8.413029e-001	3.079136e-001
1.173392187461105e-004	8.863748e-001	3.246970e-001
1.199898883889677e-004	9.505645e-001	3.487567e-001
1.226405580318248e-004	9.880419e-001	3.629965e-001
1.252912276746819e-004	9.988071e-001	3.674163e-001
1.279418973175391e-004	9.828600e-001	3.620162e-001
1.305925669603962e-004	9.402007e-001	3.467961e-001
1.332432366032534e-004	8.708291e-001	3.217561e-001
1.358939062461105e-004	7.747452e-001	2.868961e-001
1.370797321389677e-004	7.247164e-001	2.686815e-001
1.382655580318248e-004	6.714580e-001	2.492636e-001
1.394513839246819e-004	6.149702e-001	2.286424e-001
1.406372098175391e-004	5.552528e-001	2.068179e-001
1.418230357103962e-004	4.923060e-001	1.837902e-001
1.430088616032534e-004	4.261296e-001	1.595591e-001
1.441946874961105e-004	3.567237e-001	1.341248e-001
1.448922321389677e-004	3.152451e-001	1.189131e-001
1.455897767818248e-004	2.733645e-001	1.035463e-001
1.462873214246820e-004	2.310817e-001	8.802432e-002
1.469848660675391e-004	1.883969e-001	7.234725e-002
1.476824107103963e-004	1.453100e-001	5.651505e-002
1.483799553532534e-004	1.018210e-001	4.052773e-002
1.490774999961105e-004	5.792993e-002	2.438528e-002
1.494262723175391e-004	3.601427e-002	1.632212e-002
1.497750446389677e-004	1.410759e-002	8.260386e-003
1.501238169603963e-004	-7.790087e-003	2.000873e-004
1.504725892818248e-004	-2.967878e-002	-7.858778e-003
1.508213616032534e-004	-5.155847e-002	-1.591621e-002
1.511701339246820e-004	-7.342918e-002	-2.397221e-002
1.515189062461105e-004	-9.529089e-002	-3.202678e-002
1.523559598175391e-004	-1.478404e-001	-5.139581e-002
1.531930133889677e-004	-1.996292e-001	-7.049513e-002
1.540300669603963e-004	-2.506573e-001	-8.932474e-002
1.548671205318248e-004	-3.009247e-001	-1.078846e-001
1.557041741032534e-004	-3.504315e-001	-1.261748e-001
1.565412276746820e-004	-3.991776e-001	-1.441953e-001
1.573782812461105e-004	-4.471630e-001	-1.619461e-001
1.587733705318248e-004	-5.249958e-001	-1.907676e-001
1.601684598175391e-004	-5.975255e-001	-2.176552e-001
1.615635491032534e-004	-6.647520e-001	-2.426091e-001
1.629586383889677e-004	-7.266754e-001	-2.656292e-001
1.643537276746820e-004	-7.832957e-001	-2.867156e-001
1.657488169603963e-004	-8.346128e-001	-3.058681e-001
1.671439062461105e-004	-8.806267e-001	-3.230869e-001
1.697945758889677e-004	-9.468319e-001	-3.480422e-001
1.724452455318248e-004	-9.862933e-001	-3.631187e-001
1.750959151746820e-004	-9.990111e-001	-3.683164e-001
1.777465848175391e-004	-9.849853e-001	-3.636352e-001
1.803972544603963e-004	-9.442158e-001	-3.490752e-001
1.830479241032534e-004	-8.767027e-001	-3.246363e-001
1.856985937461106e-004	-7.824458e-001	-2.903186e-001
1.868844196389677e-004	-7.331147e-001	-2.722902e-001
1.880702455318248e-004	-6.804994e-001	-2.530389e-001
1.892560714246820e-004	-6.246000e-001	-2.325648e-001
1.904418973175391e-004	-5.654165e-001	-2.108678e-001
1.916277232103963e-004	-5.029488e-001	-1.879481e-001
1.928135491032534e-004	-4.371970e-001	-1.638056e-001
1.939993749961106e-004	-3.681611e-001	-1.384403e-001
1.946969196389677e-004	-3.268670e-001	-1.232616e-001
1.953944642818248e-004	-2.851479e-001	-1.079222e-001
1.960920089246820e-004	-2.430037e-001	-9.242227e-002
1.967895535675391e-004	-2.004345e-001	-7.676167e-002
1.974870982103963e-004	-1.574402e-001	-6.094044e-002
1.981846428532534e-004	-1.140209e-001	-4.495858e-002
1.988821874961106e-004	-7.017650e-002	-2.881608e-002
2.013235937461106e-004	8.306802e-002	2.763486e-002
2.020908928532534e-004	1.312693e-001	4.540045e-002
2.028581919603963e-004	1.788929e-001	6.295772e-002
2.036254910675392e-004	2.259387e-001	8.030668e-002
2.043927901746820e-004	2.724067e-001	9.744732e-002
2.051600892818249e-004	3.182970e-001	1.143796e-001
2.059273883889677e-004	3.636096e-001	1.311036e-001
2.066946874961106e-004	4.083444e-001	1.476193e-001
2.080200223175392e-004	4.839767e-001	1.755539e-001
2.093453571389677e-004	5.551145e-001	2.018467e-001
2.106706919603963e-004	6.217577e-001	2.264978e-001
2.119960267818249e-004	6.839064e-001	2.495070e-001
2.133213616032534e-004	7.415605e-001	2.708745e-001
2.146466964246820e-004	7.947200e-001	2.906002e-001
2.159720312461106e-004	8.433850e-001	3.086841e-001
2.188319642818249e-004	9.261168e-001	3.395827e-001
2.216918973175392e-004	9.778174e-001	3.590768e-001
2.245518303532534e-004	9.984867e-001	3.671663e-001
2.274117633889677e-004	9.881247e-001	3.638514e-001
2.302716964246820e-004	9.467314e-001	3.491319e-001
2.331316294603963e-004	8.743069e-001	3.230078e-001
2.359915624961106e-004	7.708511e-001	2.854792e-001
2.371773883889678e-004	7.204762e-001	2.671364e-001
2.383632142818249e-004	6.668994e-001	2.476003e-001
2.395490401746820e-004	6.101205e-001	2.268709e-001
2.407348660675392e-004	5.501396e-001	2.049482e-001
2.419206919603963e-004	4.869567e-001	1.818322e-001
2.431065178532534e-004	4.205718e-001	1.575230e-001
2.442923437461106e-004	3.509848e-001	1.320205e-001
2.449898883889677e-004	3.094163e-001	1.167747e-001
2.456874330318249e-004	2.674573e-001	1.013781e-001
2.463849776746820e-004	2.251076e-001	8.583055e-002
2.470825223175391e-004	1.823674e-001	7.013209e-002
2.477800669603963e-004	1.392366e-001	5.428272e-002
2.484776116032534e-004	9.571522e-002	3.828245e-002
2.491751562461106e-004	5.180326e-002	2.213128e-002
2.495239285675391e-004	2.988169e-002	1.406542e-002
2.498727008889677e-004	7.972060e-003	6.002072e-003
2.502214732103963e-004	-1.392564e-002	-2.058757e-003
2.505702455318249e-004	-3.581140e-002	-1.011707e-002
2.509190178532534e-004	-5.768522e-002	-1.817287e-002
2.512677901746820e-004	-7.954711e-002	-2.622615e-002
2.516165624961106e-004	-1.013971e-001	-3.427691e-002
2.524536160675391e-004	-1.539058e-001	-5.363222e-002
2.532906696389677e-004	-2.056376e-001	-7.271181e-002
2.541277232103963e-004	-2.565925e-001	-9.151568e-002
2.549647767818249e-004	-3.067705e-001	-1.100438e-001
2.558018303532534e-004	-3.561715e-001	-1.282963e-001
2.566388839246820e-004	-4.047957e-001	-1.462730e-001
2.574759374961106e-004	-4.526429e-001	-1.639740e-001
2.588710267818249e-004	-5.302061e-001	-1.926981e-001
2.602661160675391e-004	-6.024327e-001	-2.194758e-001
2.616612053532535e-004	-6.693228e-001	-2.443073e-001
2.630562946389678e-004	-7.308763e-001	-2.671925e-001
2.644513839246821e-004	-7.870933e-001	-2.881315e-001
2.658464732103963e-004	-8.379736e-001	-3.071242e-001
2.672415624961106e-004	-8.835174e-001	-3.241706e-001
2.698922321389678e-004	-9.487161e-001	-3.487559e-001
2.725429017818249e-004	-9.871863e-001	-3.634675e-001
2.751935714246821e-004	-9.989280e-001	-3.683052e-001
2.778442410675392e-004	-9.839412e-001	-3.632692e-001
2.804949107103963e-004	-9.422260e-001	-3.483593e-001
2.831455803532535e-004	-8.737823e-001	-3.235756e-001
2.857962499961106e-004	-7.786102e-001	-2.889181e-001
2.869820758889678e-004	-7.289293e-001	-2.707597e-001
2.881679017818249e-004	-6.759915e-001	-2.513885e-001
2.893537276746821e-004	-6.197968e-001	-2.308045e-001
2.905395535675392e-004	-5.603452e-001	-2.090078e-001
2.917253794603963e-004	-4.976368e-001	-1.859984e-001
2.929112053532535e-004	-4.316714e-001	-1.617761e-001
2.940970312461106e-004	-3.624492e-001	-1.363411e-001
2.947945758889678e-004	-3.210621e-001	-1.211276e-001
2.954921205318249e-004	-2.792614e-001	-1.057576e-001
2.961896651746821e-004	-2.370472e-001	-9.023127e-002
2.968872098175392e-004	-1.944194e-001	-7.454852e-002
2.975847544603963e-004	-1.513780e-001	-5.870936e-002
2.982822991032535e-004	-1.079230e-001	-4.271381e-002
2.989798437461106e-004	-6.405442e-002	-2.656186e-002
2.993286160675392e-004	-4.214549e-002	-1.849382e-002
2.996773883889678e-004	-2.024260e-002	-1.042706e-002
3.000261607103963e-004	1.654242e-003	-2.361567e-003
3.003749330318249e-004	2.354504e-002	5.702648e-003
3.007237053532535e-004	4.542978e-002	1.376559e-002
3.010724776746821e-004	6.730848e-002	2.182725e-002
3.014212499961106e-004	8.918113e-002	2.988764e-002
3.021885491032535e-004	1.373495e-001	4.764167e-002
3.029558482103963e-004	1.849263e-001	6.518230e-002
3.037231473175392e-004	2.319116e-001	8.250955e-002
3.044904464246821e-004	2.783054e-001	9.962341e-002
3.052577455318249e-004	3.241077e-001	1.165239e-001
3.060250446389678e-004	3.693185e-001	1.332110e-001
3.067923437461106e-004	4.139377e-001	1.496847e-001
3.081176785675392e-004	4.893353e-001	1.775338e-001
3.094430133889678e-004	5.602065e-001	2.037294e-001
3.107683482103963e-004	6.265513e-001	2.282715e-001
3.120936830318249e-004	6.883696e-001	2.511601e-001
3.134190178532535e-004	7.456615e-001	2.723952e-001
3.147443526746821e-004	7.984269e-001	2.919767e-001
3.160696874961106e-004	8.466660e-001	3.099048e-001
3.189296205318250e-004	9.283316e-001	3.404131e-001
3.217895535675392e-004	9.789783e-001	3.595209e-001
3.246494866032535e-004	9.986061e-001	3.672281e-001
3.275094196389678e-004	9.872149e-001	3.635348e-001
3.303693526746821e-004	9.448048e-001	3.484409e-001
3.332292857103964e-004	8.713758e-001	3.219465e-001
3.360892187461107e-004	7.669279e-001	2.840516e-001
3.372750446389678e-004	7.162089e-001	2.655812e-001
3.384608705318250e-004	6.623156e-001	2.459276e-001
3.396466964246821e-004	6.052478e-001	2.250908e-001
3.408325223175392e-004	5.450056e-001	2.030708e-001
3.420183482103964e-004	4.815890e-001	1.798675e-001
3.432041741032535e-004	4.149980e-001	1.554809e-001
3.443899999961107e-004	3.452327e-001	1.299112e-001
3.450875446389678e-004	3.035758e-001	1.146320e-001
3.457850892818250e-004	2.615399e-001	9.920609e-002
3.464826339246821e-004	2.191250e-001	8.363352e-002
3.471801785675392e-004	1.763310e-001	6.791427e-002
3.478777232103964e-004	1.331579e-001	5.204833e-002
3.485752678532535e-004	8.960582e-002	3.603572e-002
3.492728124961107e-004	4.567464e-002	1.987641e-002
3.496215848175392e-004	2.374800e-002	1.180816e-002
3.499703571389678e-004	1.836229e-003	3.743503e-003
3.503191294603964e-004	-2.006066e-002	-4.317554e-003
3.506679017818250e-004	-4.194267e-002	-1.237501e-002
3.510166741032535e-004	-6.380980e-002	-2.042887e-002
3.513654464246821e-004	-8.566204e-002	-2.847913e-002
3.517142187461107e-004	-1.074994e-001	-3.652579e-002
3.525512723175392e-004	-1.599654e-001	-5.586663e-002
3.533883258889678e-004	-2.116383e-001	-7.492577e-002
3.542253794603964e-004	-2.625180e-001	-9.370320e-002
3.550624330318250e-004	-3.126046e-001	-1.121989e-001
3.558994866032535e-004	-3.618981e-001	-1.304129e-001
3.567365401746821e-004	-4.103985e-001	-1.483452e-001
3.575735937461107e-004	-4.581057e-001	-1.659958e-001
3.589686830318250e-004	-5.353964e-001	-1.946213e-001
3.603637723175392e-004	-6.073173e-001	-2.212881e-001
3.617588616032535e-004	-6.738684e-001	-2.459963e-001
3.631539508889678e-004	-7.350497e-001	-2.687458e-001
3.645490401746821e-004	-7.908612e-001	-2.895366e-001
3.659441294603964e-004	-8.413029e-001	-3.083687e-001
3.673392187461107e-004	-8.863748e-001	-3.252421e-001
3.699898883889678e-004	-9.505645e-001	-3.494565e-001
3.726405580318250e-004	-9.880419e-001	-3.638025e-001
3.752912276746822e-004	-9.988071e-001	-3.682802e-001
3.779418973175393e-004	-9.828600e-001	-3.628894e-001
3.805925669603964e-004	-9.402007e-001	-3.476302e-001
3.832432366032536e-004	-8.708291e-001	-3.225027e-001
3.858939062461107e-004	-7.747452e-001	-2.875067e-001
3.870797321389679e-004	-7.247164e-001	-2.692190e-001
3.882655580318250e-004	-6.714580e-001	-2.497287e-001
3.894513839246822e-004	-6.149702e-001	-2.290356e-001
3.906372098175393e-004	-5.552528e-001	-2.071400e-001
3.918230357103964e-004	-4.923060e-001	-1.840416e-001
3.930088616032536e-004	-4.261296e-001	-1.597406e-001
3.941946874961107e-004	-3.567237e-001	-1.342369e-001
3.948922321389679e-004	-3.152451e-001	-1.189891e-001
3.955897767818250e-004	-2.733645e-001	-1.035891e-001
3.962873214246822e-004	-2.310817e-001	-8.803690e-002
3.969848660675393e-004	-1.883969e-001	-7.233258e-002
3.976824107103964e-004	-1.453100e-001	-5.647610e-002
3.983799553532536e-004	-1.018210e-001	-4.046747e-002
3.990774999961107e-004	-5.792993e-002	-2.430668e-002
3.994262723175393e-004	-3.601427e-002	-1.623589e-002
3.997750446389679e-004	-1.410759e-002	-8.167459e-003
4.001238169603964e-004	7.790087e-003	-1.013920e-004
4.004725892818250e-004	2.967878e-002	7.962314e-003
4.008213616032536e-004	5.155847e-002	1.602366e-002
4.011701339246822e-004	7.342918e-002	2.408264e-002
4.015189062461107e-004	9.529089e-002	3.213927e-002
4.023559598175393e-004	1.478404e-001	5.150895e-002
4.031930133889679e-004	1.996292e-001	7.060379e-002
4.040300669603964e-004	2.506573e-001	8.942378e-002
4.048671205318250e-004	3.009247e-001	1.079689e-001
4.057041741032536e-004	3.504315e-001	1.262392e-001
4.065412276746822e-004	3.991776e-001	1.442347e-001
4.073782812461107e-004	4.471630e-001	1.619553e-001
4.087733705318250e-004	5.249958e-001	1.907122e-001
4.101684598175393e-004	5.975255e-001	2.175310e-001
4.115635491032536e-004	6.647520e-001	2.424117e-001
4.129586383889679e-004	7.266754e-001	2.653542e-001
4.143537276746822e-004	7.832957e-001	2.863587e-001
4.157488169603964e-004	8.346128e-001	3.054250e-001
4.171439062461107e-004	8.806267e-001	3.225532e-001
4.197945758889679e-004	9.468319e-001	3.473510e-001
4.224452455318250e-004	9.862933e-001	3.623183e-001
4.250959151746822e-004	9.990111e-001	3.674551e-001
4.277465848175394e-004	9.849853e-001	3.627614e-001
4.303972544603964e-004	9.442158e-001	3.482371e-001
4.330479241032536e-004	8.767027e-001	3.238824e-001
4.356985937461108e-004	7.824458e-001	2.896971e-001
4.368844196389679e-004	7.331147e-001	2.717409e-001
4.380702455318251e-004	6.804994e-001	2.525616e-001
4.392560714246822e-004	6.246000e-001	2.321592e-001
4.404418973175393e-004	5.654165e-001	2.105335e-001
4.416277232103965e-004	5.029488e-001	1.876847e-001
4.428135491032536e-004	4.371970e-001	1.636128e-001
4.439993749961108e-004	3.681611e-001	1.383177e-001
4.446969196389679e-004	3.268670e-001	1.231758e-001
4.453944642818251e-004	2.851479e-001	1.078703e-001
4.460920089246822e-004	2.430037e-001	9.240135e-002
