time	V(vin)	V(vo)
0.000000000000000e+00	0.000000e+00	1.201263e-02
1.954521762465106e-07	2.456130e-04	1.200048e-02
3.909043524930212e-07	4.912247e-04	1.193669e-02
5.863565287395318e-07	7.368353e-04	1.182125e-02
7.818087049860424e-07	9.824448e-04	1.165416e-02
9.772608812325529e-07	1.228053e-03	1.143543e-02
1.172713057479064e-06	1.473660e-03	1.116505e-02
1.368165233725574e-06	1.719266e-03	1.084303e-02
2.555922986221964e-06	3.211729e-03	8.417423e-03
3.726542346643055e-06	4.682483e-03	5.470405e-03
4.665246275857369e-06	5.861682e-03	3.056299e-03
5.520256904023132e-06	6.935569e-03	1.126659e-03
6.337820829213985e-06	7.962236e-03	-5.693836e-04
6.883496037484999e-06	8.647360e-03	-1.966325e-03
7.447872038894083e-06	9.355856e-03	-4.142188e-03
8.089400662243852e-06	1.016106e-02	-7.940270e-03
9.088820809155668e-06	1.141514e-02	-1.639735e-02
1.070710122498300e-05	1.344479e-02	-3.364411e-02
1.238433185412997e-05	1.554691e-02	-5.399681e-02
1.883949151547409e-05	2.361915e-02	-1.371442e-01
2.311575933724786e-05	2.894610e-02	-1.833840e-01
2.670947419938156e-05	3.340679e-02	-2.067217e-01
3.033799734004986e-05	3.789340e-02	-2.174067e-01
3.558946854961861e-05	4.435126e-02	-2.258219e-01
4.110135736623408e-05	5.107730e-02	-2.316382e-01
5.086698236623409e-05	6.283864e-02	-2.386896e-01
6.063260736623409e-05	7.436346e-02	-2.438435e-01
7.039823236623408e-05	8.560840e-02	-2.476664e-01
8.016385736623408e-05	9.653112e-02	-2.501231e-01
8.785483910327734e-05	1.048796e-01	-2.507654e-01
1.039438088234999e-04	1.215300e-01	-2.507625e-01
1.234750588234999e-04	1.400599e-01	-2.507496e-01
1.430063088234999e-04	1.564831e-01	-2.507365e-01
1.625375588235000e-04	1.705527e-01	-2.507249e-01
1.820688088235000e-04	1.820570e-01	-2.507153e-01
2.016000588235000e-04	1.908230e-01	-2.507079e-01
2.211313088235000e-04	1.967189e-01	-2.507030e-01
2.406625588235000e-04	1.996559e-01	-2.507007e-01
2.601938088235000e-04	1.995899e-01	-2.507011e-01
2.797250588235000e-04	1.965219e-01	-2.507041e-01
2.992563088235001e-04	1.904980e-01	-2.507097e-01
3.187875588235001e-04	1.816089e-01	-2.507180e-01
3.383188088235001e-04	1.699882e-01	-2.507285e-01
3.578500588235001e-04	1.558107e-01	-2.507412e-01
3.773813088235001e-04	1.392896e-01	-2.507557e-01
3.969125588235001e-04	1.206736e-01	-2.507717e-01
4.164438088235002e-04	1.002424e-01	-2.507881e-01
4.359750588235002e-04	7.830358e-02	-2.508029e-01
4.457406838235002e-04	6.687111e-02	-2.508088e-01
4.555063088235002e-04	5.518696e-02	-2.508098e-01
4.652719338235002e-04	4.329509e-02	-2.508066e-01
4.750375588235002e-04	3.124028e-02	-2.507062e-01
4.945688088235002e-04	6.823712e-03	-2.494356e-01
5.043344338235002e-04	-5.446137e-03	-2.477733e-01
5.141000588235002e-04	-1.769549e-02	-2.448054e-01
5.238656838235002e-04	-2.987824e-02	-2.388015e-01
5.336313088235002e-04	-4.194853e-02	-2.247923e-01
5.369788079729055e-04	-4.605197e-02	-1.928015e-01
5.389158144958174e-04	-4.841721e-02	-1.266543e-01
5.408070536566172e-04	-5.071964e-02	-2.142766e-02
5.411440557212638e-04	-5.112918e-02	-6.104490e-03
5.413726394098432e-04	-5.140683e-02	-6.525631e-04
5.414659578299933e-04	-5.152014e-02	7.750015e-04
5.415475248622990e-04	-5.161918e-02	2.068084e-03
5.416308679015825e-04	-5.172035e-02	3.888610e-03
5.417563299367926e-04	-5.187264e-02	7.808292e-03
5.419844736590657e-04	-5.214947e-02	1.732809e-02
5.423038270299876e-04	-5.253679e-02	3.328973e-02
5.426361382915296e-04	-5.293960e-02	5.155442e-02
5.431808281666543e-04	-5.359935e-02	8.252792e-02
5.441085421070881e-04	-5.472159e-02	1.326001e-01
5.453904684627927e-04	-5.626925e-02	1.844487e-01
5.466929960656350e-04	-5.783803e-02	2.101634e-01
5.479978774713045e-04	-5.940577e-02	2.191640e-01
5.492816764879453e-04	-6.094428e-02	2.235307e-01
5.518492745212268e-04	-6.400931e-02	2.287650e-01
5.565531284442571e-04	-6.958067e-02	2.348875e-01
5.623709115861641e-04	-7.638679e-02	2.397378e-01
5.721365365861641e-04	-8.757744e-02	2.451194e-01
5.819021615861641e-04	-9.843846e-02	2.486770e-01
5.953298959611640e-04	-1.127593e-01	2.507791e-01
6.099783334611640e-04	-1.274638e-01	2.507666e-01
6.295095834611640e-04	-1.453712e-01	2.507511e-01
6.490408334611641e-04	-1.610920e-01	2.507372e-01
6.685720834611641e-04	-1.743899e-01	2.507253e-01
6.881033334611641e-04	-1.850647e-01	2.507157e-01
7.076345834611641e-04	-1.929560e-01	2.507086e-01
7.271658334611641e-04	-1.979451e-01	2.507042e-01
7.466970834611641e-04	-1.999569e-01	2.507024e-01
7.662283334611642e-04	-1.989612e-01	2.507032e-01
7.857595834611642e-04	-1.949729e-01	2.507068e-01
8.052908334611642e-04	-1.880520e-01	2.507131e-01
8.248220834611642e-04	-1.783027e-01	2.507218e-01
8.443533334611642e-04	-1.658715e-01	2.507329e-01
8.638845834611642e-04	-1.509455e-01	2.507462e-01
8.834158334611643e-04	-1.337491e-01	2.507612e-01
9.029470834611643e-04	-1.145409e-01	2.507775e-01
9.224783334611643e-04	-9.361003e-02	2.507940e-01
9.322439584611643e-04	-8.259601e-02	2.508017e-01
9.420095834611643e-04	-7.127112e-02	2.508085e-01
9.517752084611643e-04	-5.967799e-02	2.508135e-01
9.615408334611643e-04	-4.786024e-02	2.508146e-01
9.713064584611643e-04	-3.586235e-02	2.508014e-01
9.810720834611643e-04	-2.372949e-02	2.506828e-01
1.000603333461164e-03	7.581694e-04	2.491147e-01
1.010368958461164e-03	1.302080e-02	2.470464e-01
1.020134583461164e-03	2.523443e-02	2.433648e-01
1.029900208461164e-03	3.735308e-02	2.334466e-01
1.039665833461164e-03	4.933114e-02	1.648503e-01
1.042426838884984e-03	5.268593e-02	8.014212e-02
1.044034886315365e-03	5.463256e-02	1.206853e-03
1.046393043825894e-03	5.747711e-02	-1.082694e-01
1.048849795658221e-03	6.042715e-02	-1.920858e-01
1.050688074706423e-03	6.262516e-02	-2.190542e-01
1.052315712070650e-03	6.456434e-02	-2.249114e-01
1.054023081682973e-03	6.659126e-02	-2.284963e-01
1.057437820907617e-03	7.062187e-02	-2.331370e-01
1.064267299356907e-03	7.858372e-02	-2.391837e-01
1.074032924356907e-03	8.971363e-02	-2.448728e-01
1.083798549356907e-03	1.005059e-01	-2.485363e-01
1.094784877481907e-03	1.121930e-01	-2.507779e-01
1.097226283731907e-03	1.147195e-01	-2.507774e-01
1.111874721231907e-03	1.292911e-01	-2.507651e-01
1.131405971231907e-03	1.469975e-01	-2.507498e-01
1.150937221231907e-03	1.624929e-01	-2.507361e-01
1.170468471231907e-03	1.755442e-01	-2.507245e-01
1.189999721231907e-03	1.859552e-01	-2.507151e-01
1.209530971231907e-03	1.935692e-01	-2.507083e-01
1.229062221231907e-03	1.982718e-01	-2.507041e-01
1.248593471231907e-03	1.999922e-01	-2.507025e-01
1.268124721231907e-03	1.987045e-01	-2.507037e-01
1.287655971231907e-03	1.944281e-01	-2.507075e-01
1.307187221231907e-03	1.872274e-01	-2.507140e-01
1.326718471231907e-03	1.772105e-01	-2.507230e-01
1.346249721231907e-03	1.645283e-01	-2.507343e-01
1.365780971231907e-03	1.493714e-01	-2.507477e-01
1.385312221231907e-03	1.319678e-01	-2.507629e-01
1.404843471231907e-03	1.125793e-01	-2.507791e-01
1.424374721231907e-03	9.149750e-02	-2.507953e-01
1.434140346231907e-03	8.041984e-02	-2.508027e-01
1.443905971231907e-03	6.903949e-02	-2.508088e-01
1.453671596231907e-03	5.739930e-02	-2.508126e-01
1.463437221231907e-03	4.554306e-02	-2.508106e-01
1.473202846231907e-03	3.351542e-02	-2.507697e-01
1.482968471231907e-03	2.136162e-02	-2.505431e-01
1.502499721231907e-03	-3.141113e-03	-2.484292e-01
1.512265346231907e-03	-1.539784e-02	-2.458580e-01
1.522030971231907e-03	-2.759661e-02	-2.410370e-01
1.531796596231907e-03	-3.969151e-02	-2.314968e-01
1.535956743546564e-03	-4.480118e-02	-2.200111e-01
1.538237309378529e-03	-4.758950e-02	-1.864008e-01
1.539716237932341e-03	-4.939251e-02	-1.241738e-01
1.540898612167942e-03	-5.083093e-02	-5.120752e-02
1.541350345911951e-03	-5.137975e-02	-2.470621e-02
1.541682104137849e-03	-5.178255e-02	-9.327229e-03
1.541868793483216e-03	-5.200911e-02	-3.625473e-03
1.542095501676933e-03	-5.228415e-02	4.696610e-04
1.542194129090081e-03	-5.240377e-02	2.086470e-03
1.542283643286832e-03	-5.251231e-02	4.022485e-03
1.542389851067999e-03	-5.264109e-02	7.315668e-03
1.542602266630334e-03	-5.289856e-02	1.608564e-02
1.542886634127440e-03	-5.324309e-02	3.014440e-02
1.543180450764898e-03	-5.359890e-02	4.628223e-02
1.543736050381618e-03	-5.427122e-02	7.816537e-02
1.544463869712688e-03	-5.515094e-02	1.183451e-01
1.545919508374827e-03	-5.690689e-02	1.815231e-01
1.547138674062291e-03	-5.837393e-02	2.088362e-01
1.548379779179457e-03	-5.986385e-02	2.182672e-01
1.549739526466578e-03	-6.149201e-02	2.232353e-01
1.551977240807126e-03	-6.416164e-02	2.281177e-01
1.556452669488222e-03	-6.946230e-02	2.342775e-01
1.561840177666881e-03	-7.576999e-02	2.390398e-01
1.571605802666881e-03	-8.697736e-02	2.446658e-01
1.581371427666881e-03	-9.785736e-02	2.484218e-01
1.594799162041881e-03	-1.122078e-01	2.507796e-01
1.609447599541881e-03	-1.269492e-01	2.507672e-01
1.628978849541881e-03	-1.449123e-01	2.507515e-01
1.648510099541881e-03	-1.606958e-01	2.507376e-01
1.668041349541881e-03	-1.740623e-01	2.507257e-01
1.687572599541881e-03	-1.848108e-01	2.507160e-01
1.707103849541881e-03	-1.927795e-01	2.507088e-01
1.726635099541881e-03	-1.978487e-01	2.507043e-01
1.746166349541881e-03	-1.999420e-01	2.507024e-01
1.765697599541881e-03	-1.990280e-01	2.507032e-01
1.785228849541881e-03	-1.951204e-01	2.507067e-01
1.804760099541881e-03	-1.882781e-01	2.507129e-01
1.824291349541881e-03	-1.786038e-01	2.507215e-01
1.843822599541881e-03	-1.662432e-01	2.507326e-01
1.863353849541881e-03	-1.513822e-01	2.507458e-01
1.882885099541881e-03	-1.342442e-01	2.507608e-01
1.902416349541881e-03	-1.150870e-01	2.507771e-01
1.921947599541881e-03	-9.419888e-02	2.507936e-01
1.931713224541881e-03	-8.320296e-02	2.508014e-01
1.941478849541881e-03	-7.189388e-02	2.508082e-01
1.951244474541881e-03	-6.031421e-02	2.508134e-01
1.961010099541881e-03	-4.850753e-02	2.508147e-01
1.970775724541881e-03	-3.651828e-02	2.508036e-01
1.980541349541880e-03	-2.439159e-02	2.506942e-01
2.000072599541880e-03	9.123128e-05	2.491879e-01
2.009838224541880e-03	1.235521e-02	2.471798e-01
2.019603849541880e-03	2.457268e-02	2.436156e-01
2.029369474541879e-03	3.669766e-02	2.347409e-01
2.039135099541879e-03	4.868453e-02	1.800804e-01
2.041902665984475e-03	5.205021e-02	1.039923e-01
2.045837020750365e-03	5.680751e-02	-8.694249e-02
2.047683982676466e-03	5.902901e-02	-1.720260e-01
2.048963295177348e-03	6.056309e-02	-2.055641e-01
2.050504788668868e-03	6.240638e-02	-2.185203e-01
2.052105731931535e-03	6.431454e-02	-2.243003e-01
2.054036996358945e-03	6.660775e-02	-2.284184e-01
2.057899525213763e-03	7.116439e-02	-2.337950e-01
2.062399179194816e-03	7.641962e-02	-2.380021e-01
2.071398487156922e-03	8.674268e-02	-2.435738e-01
2.081164112156922e-03	9.763007e-02	-2.477666e-01
2.090929737156922e-03	1.081500e-01	-2.506196e-01
2.094591846531922e-03	1.119921e-01	-2.507795e-01
2.108703981069957e-03	1.262257e-01	-2.507677e-01
2.128235231069957e-03	1.442667e-01	-2.507522e-01
2.147766481069957e-03	1.601378e-01	-2.507381e-01
2.167297731069956e-03	1.736002e-01	-2.507262e-01
2.186828981069956e-03	1.844516e-01	-2.507164e-01
2.206360231069955e-03	1.925286e-01	-2.507092e-01
2.225891481069955e-03	1.977098e-01	-2.507046e-01
2.245422731069955e-03	1.999173e-01	-2.507028e-01
2.264953981069954e-03	1.991178e-01	-2.507035e-01
2.284485231069954e-03	1.953234e-01	-2.507069e-01
2.304016481069953e-03	1.885912e-01	-2.507129e-01
2.323547731069953e-03	1.790224e-01	-2.507215e-01
2.343078981069952e-03	1.667609e-01	-2.507324e-01
2.362610231069952e-03	1.519912e-01	-2.507455e-01
2.382141481069952e-03	1.349354e-01	-2.507604e-01
2.401672731069951e-03	1.158500e-01	-2.507765e-01
2.421203981069951e-03	9.502216e-02	-2.507929e-01
2.430969606069951e-03	8.405180e-02	-2.508005e-01
2.440735231069950e-03	7.276509e-02	-2.508070e-01
2.450500856069950e-03	6.120450e-02	-2.508118e-01
2.460266481069950e-03	4.941356e-02	-2.508122e-01
2.470032106069950e-03	3.743663e-02	-2.507979e-01
2.479797731069950e-03	2.531880e-02	-2.506684e-01
2.499328981069949e-03	8.432248e-04	-2.490137e-01
2.509094606069949e-03	-1.142240e-02	-2.468693e-01
2.518860231069949e-03	-2.364503e-02	-2.430331e-01
2.528625856069948e-03	-3.577867e-02	-2.309293e-01
2.538391481069948e-03	-4.777765e-02	-1.430395e-01
2.541256718652413e-03	-5.126604e-02	-4.219696e-02
2.542169839112072e-03	-5.237431e-02	-2.889400e-04
2.543015081622125e-03	-5.339866e-02	3.484317e-02
2.543686887738453e-03	-5.421175e-02	6.950241e-02
2.544318530344940e-03	-5.497536e-02	1.057913e-01
2.545105676615306e-03	-5.592573e-02	1.480865e-01
2.546106383941997e-03	-5.713198e-02	1.868680e-01
2.547355160606177e-03	-5.863408e-02	2.102225e-01
2.548512190121391e-03	-6.002259e-02	2.185699e-01
2.549760419317315e-03	-6.151700e-02	2.230356e-01
2.552189284530881e-03	-6.441396e-02	2.282694e-01
2.556860348407203e-03	-6.994248e-02	2.345697e-01
2.562903941922644e-03	-7.700541e-02	2.397166e-01
2.572669566922644e-03	-8.817914e-02	2.451452e-01
2.582435191922644e-03	-9.902098e-02	2.487001e-01
2.595862926297644e-03	-1.133119e-01	2.507786e-01
2.610511363797643e-03	-1.279793e-01	2.507662e-01
2.630042613797643e-03	-1.458304e-01	2.507507e-01
2.649573863797642e-03	-1.614881e-01	2.507368e-01
2.669105113797642e-03	-1.747168e-01	2.507250e-01
2.688636363797642e-03	-1.853177e-01	2.507155e-01
2.708167613797641e-03	-1.931312e-01	2.507085e-01
2.727698863797641e-03	-1.980398e-01	2.507041e-01
2.747230113797640e-03	-1.999697e-01	2.507023e-01
2.766761363797640e-03	-1.988919e-01	2.507033e-01
2.786292613797640e-03	-1.948226e-01	2.507070e-01
2.805823863797639e-03	-1.878229e-01	2.507133e-01
2.825355113797639e-03	-1.779983e-01	2.507221e-01
2.844886363797638e-03	-1.654963e-01	2.507333e-01
2.864417613797638e-03	-1.505052e-01	2.507466e-01
2.883948863797637e-03	-1.332503e-01	2.507617e-01
2.903480113797637e-03	-1.139912e-01	2.507780e-01
2.923011363797637e-03	-9.301757e-02	2.507945e-01
2.932776988797636e-03	-8.198551e-02	2.508022e-01
2.942542613797636e-03	-7.064487e-02	2.508089e-01
2.952308238797636e-03	-5.903834e-02	2.508138e-01
2.962073863797636e-03	-4.720961e-02	2.508145e-01
2.971839488797636e-03	-3.520318e-02	2.507990e-01
2.981605113797635e-03	-2.306427e-02	2.506700e-01
3.001136363797635e-03	1.427985e-03	2.490356e-01
3.010901988797635e-03	1.368913e-02	2.469047e-01
3.020667613797635e-03	2.589876e-02	2.430975e-01
3.030433238797634e-03	3.801090e-02	2.315319e-01
3.040198863797634e-03	4.997999e-02	1.473140e-01
3.043038474469686e-03	5.342699e-02	5.013596e-02
3.044113501208656e-03	5.472759e-02	-1.504561e-04
3.045129264434048e-03	5.595419e-02	-4.541622e-02
3.046035449509898e-03	5.704655e-02	-9.349840e-02
3.046904815543663e-03	5.809279e-02	-1.410563e-01
3.047937605662519e-03	5.933344e-02	-1.838194e-01
3.049110154751225e-03	6.073895e-02	-2.084218e-01
3.050268134150820e-03	6.212377e-02	-2.176821e-01
3.051479716211868e-03	6.356916e-02	-2.223779e-01
3.053732849816582e-03	6.624724e-02	-2.275828e-01
3.057754520248092e-03	7.099407e-02	-2.334216e-01
3.063759693991241e-03	7.799675e-02	-2.388686e-01
3.073525318991241e-03	8.914307e-02	-2.446077e-01
3.083290943991240e-03	9.995387e-02	-2.483847e-01
3.094277272116240e-03	1.116644e-01	-2.507769e-01
3.096718678366240e-03	1.141964e-01	-2.507779e-01
3.111367115866240e-03	1.288038e-01	-2.507657e-01
3.130898365866240e-03	1.465642e-01	-2.507502e-01
3.150429615866239e-03	1.621201e-01	-2.507365e-01
3.169960865866239e-03	1.752376e-01	-2.507248e-01
3.189492115866238e-03	1.857194e-01	-2.507153e-01
3.209023365866238e-03	1.934078e-01	-2.507084e-01
3.228554615866238e-03	1.981871e-01	-2.507041e-01
3.248085865866237e-03	1.999855e-01	-2.507025e-01
3.267617115866237e-03	1.987760e-01	-2.507036e-01
3.287148365866236e-03	1.945767e-01	-2.507074e-01
3.306679615866236e-03	1.874507e-01	-2.507138e-01
3.326210865866235e-03	1.775054e-01	-2.507227e-01
3.345742115866235e-03	1.648901e-01	-2.507340e-01
3.365273365866235e-03	1.497948e-01	-2.507474e-01
3.384804615866234e-03	1.324465e-01	-2.507624e-01
3.404335865866234e-03	1.131060e-01	-2.507787e-01
3.423867115866233e-03	9.206425e-02	-2.507949e-01
3.433632740866233e-03	8.100346e-02	-2.508023e-01
3.443398365866233e-03	6.963781e-02	-2.508086e-01
3.453163990866233e-03	5.801005e-02	-2.508126e-01
3.462929615866233e-03	4.616395e-02	-2.508111e-01
3.472695240866232e-03	3.414410e-02	-2.507756e-01
3.482460865866232e-03	2.199574e-02	-2.505683e-01
3.501992115866232e-03	-2.503301e-03	-2.485365e-01
3.511757740866232e-03	-1.476178e-02	-2.460409e-01
3.521523365866231e-03	-2.696469e-02	-2.414120e-01
3.531288990866231e-03	-3.906612e-02	-2.322916e-01
3.535809995288919e-03	-4.462143e-02	-2.209377e-01
3.538141373241420e-03	-4.747240e-02	-1.894932e-01
3.539648322083091e-03	-4.930981e-02	-1.288784e-01
3.541065008372128e-03	-5.103314e-02	-4.290497e-02
3.541477479144608e-03	-5.153413e-02	-1.946533e-02
3.541770147547495e-03	-5.188940e-02	-7.117279e-03
3.541950622481954e-03	-5.210840e-02	-2.164410e-03
3.542065036900736e-03	-5.224720e-02	-2.411045e-04
3.542134452990023e-03	-5.233139e-02	7.116965e-04
3.542210722136598e-03	-5.242389e-02	1.901768e-03
3.542283018234544e-03	-5.251156e-02	3.458571e-03
3.542427610430434e-03	-5.268686e-02	7.831556e-03
3.542596951902845e-03	-5.289211e-02	1.472347e-02
3.542927501659636e-03	-5.329259e-02	3.115414e-02
3.543240268973718e-03	-5.367132e-02	4.832153e-02
3.543740181356746e-03	-5.427621e-02	7.701583e-02
3.544602849450121e-03	-5.531879e-02	1.242809e-01
3.546023848348223e-03	-5.703258e-02	1.837071e-01
3.547304441376432e-03	-5.857314e-02	2.102239e-01
3.548595125155582e-03	-6.012200e-02	2.191811e-01
3.549907641911592e-03	-6.169301e-02	2.236665e-01
3.552457764829085e-03	-6.473327e-02	2.288818e-01
3.557140662716501e-03	-7.027239e-02	2.349845e-01
3.562855797982419e-03	-7.694957e-02	2.397595e-01
3.572621422982419e-03	-8.812483e-02	2.451472e-01
3.582387047982419e-03	-9.896842e-02	2.487008e-01
3.595814782357419e-03	-1.132620e-01	2.507786e-01
3.610463219857419e-03	-1.279328e-01	2.507662e-01
3.629994469857418e-03	-1.457890e-01	2.507507e-01
3.649525719857418e-03	-1.614524e-01	2.507369e-01
3.669056969857417e-03	-1.746874e-01	2.507251e-01
3.688588219857417e-03	-1.852949e-01	2.507156e-01
3.708119469857417e-03	-1.931154e-01	2.507085e-01
3.727650719857416e-03	-1.980313e-01	2.507041e-01
3.747181969857416e-03	-1.999687e-01	2.507023e-01
3.766713219857415e-03	-1.988983e-01	2.507033e-01
3.786244469857415e-03	-1.948362e-01	2.507070e-01
3.805775719857415e-03	-1.878437e-01	2.507132e-01
3.825306969857414e-03	-1.780258e-01	2.507221e-01
3.844838219857414e-03	-1.655303e-01	2.507333e-01
3.864369469857413e-03	-1.505450e-01	2.507465e-01
3.883900719857413e-03	-1.332954e-01	2.507616e-01
3.903431969857412e-03	-1.140409e-01	2.507779e-01
3.922963219857412e-03	-9.307113e-02	2.507944e-01
3.932728844857412e-03	-8.204069e-02	2.508021e-01
3.942494469857412e-03	-7.070147e-02	2.508088e-01
3.952260094857412e-03	-5.909615e-02	2.508137e-01
3.962025719857412e-03	-4.726839e-02	2.508145e-01
3.971791344857411e-03	-3.526274e-02	2.507992e-01
3.981556969857411e-03	-2.312436e-02	2.506712e-01
4.001088219857411e-03	1.367487e-03	2.490430e-01
4.010853844857411e-03	1.362877e-02	2.469178e-01
4.020619469857410e-03	2.583877e-02	2.431222e-01
4.030385094857410e-03	3.795151e-02	2.317457e-01
4.040150719857410e-03	4.992140e-02	1.489471e-01
4.042981434870760e-03	5.335791e-02	5.325713e-02
4.044126759145323e-03	5.474361e-02	-5.586685e-04
4.045195758024802e-03	5.603441e-02	-4.929927e-02
4.046215590069985e-03	5.726348e-02	-1.037746e-01
4.047208375156236e-03	5.845770e-02	-1.549224e-01
4.048344511691592e-03	5.982156e-02	-1.937738e-01
4.049670061053139e-03	6.140894e-02	-2.137266e-01
4.050754042259451e-03	6.270389e-02	-2.199323e-01
4.052147843660408e-03	6.436465e-02	-2.242527e-01
4.054935446462320e-03	6.767125e-02	-2.296208e-01
4.059949876651163e-03	7.356634e-02	-2.356285e-01
4.067992722864046e-03	8.286680e-02	-2.416562e-01
4.077758347864046e-03	9.387276e-02	-2.465284e-01
4.087523972864045e-03	1.045254e-01	-2.496037e-01
4.095613171331425e-03	1.130531e-01	-2.507502e-01
4.096675579920193e-03	1.141519e-01	-2.507813e-01
4.098800397097727e-03	1.163342e-01	-2.507760e-01
4.111549300162933e-03	1.289788e-01	-2.507654e-01
4.131080550162932e-03	1.467199e-01	-2.507501e-01
4.150611800162932e-03	1.622541e-01	-2.507364e-01
4.170143050162931e-03	1.753479e-01	-2.507247e-01
