time	V(vin)	V(vo)
0.000000000000000e+00	0.000000e+00	1.096894e+00
6.860692112677271e-07	8.621607e-04	1.095186e+00
1.372138422535454e-06	1.724271e-03	1.089216e+00
2.058207633803181e-06	2.586331e-03	1.078983e+00
2.744276845070908e-06	3.448340e-03	1.064487e+00
3.430346056338636e-06	4.310298e-03	1.045728e+00
4.116415267606363e-06	5.172207e-03	1.022707e+00
4.802484478874088e-06	6.034064e-03	9.954225e-01
9.424389682769163e-06	1.183612e-02	7.279086e-01
1.674939230309294e-05	2.100908e-02	5.141684e-02
2.573586629078303e-05	3.219989e-02	-1.160678e+00
3.550149129078303e-05	4.424345e-02	-2.916076e+00
4.526711629078303e-05	5.612048e-02	-5.036304e+00
5.503274129078303e-05	6.778629e-02	-7.422294e+00
6.479836629078304e-05	7.919697e-02	-9.551513e+00
7.314208132178109e-05	8.871170e-02	-1.059879e+01
7.423535734321440e-05	8.994091e-02	-1.063591e+01
7.642190938608098e-05	9.238653e-02	-1.063295e+01
9.930684664328055e-05	1.168512e-01	-1.063429e+01
1.188380966432805e-04	1.358414e-01	-1.063477e+01
1.383693466432805e-04	1.527884e-01	-1.063497e+01
1.579005966432806e-04	1.674373e-01	-1.063507e+01
1.774318466432806e-04	1.795678e-01	-1.063511e+01
1.969630966432806e-04	1.889974e-01	-1.063513e+01
2.164943466432806e-04	1.955844e-01	-1.063514e+01
2.360255966432806e-04	1.992295e-01	-1.063515e+01
2.555568466432806e-04	1.998781e-01	-1.063514e+01
2.750880966432807e-04	1.975203e-01	-1.063514e+01
2.946193466432807e-04	1.921916e-01	-1.063513e+01
3.141505966432807e-04	1.839722e-01	-1.063511e+01
3.336818466432807e-04	1.729857e-01	-1.063507e+01
3.532130966432807e-04	1.593973e-01	-1.063500e+01
3.727443466432808e-04	1.434114e-01	-1.063485e+01
3.922755966432808e-04	1.252685e-01	-1.063451e+01
4.118068466432808e-04	1.052414e-01	-1.063374e+01
4.313380966432808e-04	8.363140e-02	-1.063187e+01
4.411037216432808e-04	7.233357e-02	-1.063006e+01
4.508693466432808e-04	6.076350e-02	-1.062713e+01
4.606349716432808e-04	4.896472e-02	-1.062233e+01
4.704005966432808e-04	3.698166e-02	-1.061370e+01
4.801662216432808e-04	2.485940e-02	-1.059345e+01
4.899318466432809e-04	1.264358e-02	-1.047845e+01
4.996974716432809e-04	3.801681e-04	-1.005293e+01
5.094630966432809e-04	-1.188467e-02	-9.119966e+00
5.192287216432809e-04	-2.410478e-02	-7.660632e+00
5.289943466432809e-04	-3.623417e-02	-5.771324e+00
5.387599716432809e-04	-4.822717e-02	-3.561392e+00
5.485255966432809e-04	-6.003866e-02	-1.147067e+00
5.582912216432809e-04	-7.162418e-02	1.410333e+00
5.680568466432809e-04	-8.294012e-02	4.123394e+00
5.778224716432809e-04	-9.394390e-02	6.960210e+00
5.875880966432809e-04	-1.045941e-01	9.405463e+00
5.957683581892157e-04	-1.132139e-01	1.059314e+01
5.968490930191253e-04	-1.143309e-01	1.063728e+01
6.119793806378596e-04	-1.293914e-01	1.063475e+01
6.315106306378596e-04	-1.470866e-01	1.063495e+01
6.510418806378596e-04	-1.625695e-01	1.063507e+01
6.705731306378596e-04	-1.756072e-01	1.063512e+01
6.901043806378596e-04	-1.860036e-01	1.063514e+01
7.096356306378597e-04	-1.936022e-01	1.063515e+01
7.291668806378597e-04	-1.982890e-01	1.063515e+01
7.486981306378597e-04	-1.999933e-01	1.063515e+01
7.682293806378597e-04	-1.986895e-01	1.063515e+01
7.877606306378597e-04	-1.943973e-01	1.063514e+01
8.072918806378597e-04	-1.871811e-01	1.063512e+01
8.268231306378598e-04	-1.771495e-01	1.063510e+01
8.463543806378598e-04	-1.644535e-01	1.063504e+01
8.658856306378598e-04	-1.492839e-01	1.063494e+01
8.854168806378598e-04	-1.318690e-01	1.063471e+01
9.049481306378598e-04	-1.124706e-01	1.063418e+01
9.244793806378599e-04	-9.138054e-02	1.063293e+01
9.440106306378599e-04	-6.891605e-02	1.062981e+01
9.537762556378599e-04	-5.727330e-02	1.062672e+01
9.635418806378599e-04	-4.541499e-02	1.062161e+01
9.733075056378599e-04	-3.338575e-02	1.061228e+01
9.830731306378598e-04	-2.123085e-02	1.058815e+01
9.928387556378598e-04	-8.996049e-03	1.045407e+01
1.002604380637860e-03	3.272615e-03	9.982384e+00
1.012370005637860e-03	1.552896e-02	8.986969e+00
1.022135630637860e-03	2.772686e-02	7.470938e+00
1.031901255637860e-03	3.982040e-02	5.538834e+00
1.041666880637860e-03	5.176407e-02	3.299218e+00
1.051432505637860e-03	6.351291e-02	8.649606e-01
1.061198130637860e-03	7.502270e-02	-1.708154e+00
1.070963755637860e-03	8.625012e-02	-4.433640e+00
1.080729380637860e-03	9.715291e-02	-7.278342e+00
1.090495005637860e-03	1.076901e-01	-9.669485e+00
1.098134734456197e-03	1.156527e-01	-1.061434e+01
1.099143943171919e-03	1.166851e-01	-1.063883e+01
1.101162360603361e-03	1.187356e-01	-1.063440e+01
1.123038490192014e-03	1.396677e-01	-1.063490e+01
1.142569740192014e-03	1.561409e-01	-1.063507e+01
1.162100990192014e-03	1.702655e-01	-1.063514e+01
1.181632240192014e-03	1.818292e-01	-1.063517e+01
1.201163490192014e-03	1.906580e-01	-1.063518e+01
1.220694740192014e-03	1.966192e-01	-1.063518e+01
1.240225990192014e-03	1.996230e-01	-1.063518e+01
1.259757240192014e-03	1.996243e-01	-1.063517e+01
1.279288490192014e-03	1.966230e-01	-1.063516e+01
1.298819740192014e-03	1.906644e-01	-1.063515e+01
1.318350990192014e-03	1.818380e-01	-1.063512e+01
1.337882240192014e-03	1.702766e-01	-1.063508e+01
1.357413490192014e-03	1.561540e-01	-1.063499e+01
1.376944740192014e-03	1.396828e-01	-1.063481e+01
1.396475990192014e-03	1.211106e-01	-1.063441e+01
1.416007240192014e-03	1.007168e-01	-1.063348e+01
1.435538490192014e-03	7.880809e-02	-1.063120e+01
1.445304115192014e-03	6.738789e-02	-1.062898e+01
1.455069740192014e-03	5.571406e-02	-1.062537e+01
1.464835365192014e-03	4.383053e-02	-1.061935e+01
1.474600990192014e-03	3.178203e-02	-1.060765e+01
1.484366615192015e-03	1.961391e-02	-1.056167e+01
1.494132240192015e-03	7.371974e-03	-1.034575e+01
1.503897865192015e-03	-4.897712e-03	-9.724365e+00
1.513663490192015e-03	-1.714896e-02	-8.560734e+00
1.523429115192015e-03	-2.933567e-02	-6.902132e+00
1.533194740192015e-03	-4.141197e-02	-4.861712e+00
1.542960365192015e-03	-5.333240e-02	-2.551918e+00
1.552725990192015e-03	-6.505209e-02	-6.918951e-02
1.562491615192015e-03	-7.652695e-02	2.556778e+00
1.572257240192015e-03	-8.771378e-02	5.325819e+00
1.582022865192015e-03	-9.857047e-02	8.068925e+00
1.591788490192015e-03	-1.090562e-01	1.048320e+01
1.593009193317015e-03	-1.103388e-01	1.062426e+01
1.609612686274391e-03	-1.271094e-01	1.063459e+01
1.629143936274391e-03	-1.450552e-01	1.063486e+01
1.648675186274391e-03	-1.608192e-01	1.063499e+01
1.668206436274391e-03	-1.741644e-01	1.063505e+01
1.687737686274391e-03	-1.848900e-01	1.063508e+01
1.707268936274391e-03	-1.928347e-01	1.063510e+01
1.726800186274391e-03	-1.978789e-01	1.063517e+01
1.746331436274391e-03	-1.999469e-01	1.063532e+01
1.765862686274391e-03	-1.990075e-01	1.063531e+01
1.785393936274391e-03	-1.950748e-01	1.063528e+01
1.804925186274391e-03	-1.882080e-01	1.063525e+01
1.824456436274391e-03	-1.785104e-01	1.063521e+01
1.843987686274391e-03	-1.661278e-01	1.063515e+01
1.863518936274391e-03	-1.512465e-01	1.063504e+01
1.883050186274391e-03	-1.340903e-01	1.063482e+01
1.902581436274391e-03	-1.149173e-01	1.063434e+01
1.922112686274391e-03	-9.401582e-02	1.063321e+01
1.941643936274391e-03	-7.170025e-02	1.063042e+01
1.951409561274391e-03	-6.011638e-02	1.062768e+01
1.961175186274391e-03	-4.830625e-02	1.062304e+01
1.970940811274391e-03	-3.631430e-02	1.061515e+01
1.980706436274391e-03	-2.418567e-02	1.059701e+01
1.990472061274391e-03	-1.196601e-02	1.050106e+01
2.000237686274390e-03	2.986853e-04	1.012952e+01
2.010003311274390e-03	1.256226e-02	9.267404e+00
2.019768936274390e-03	2.477855e-02	7.869985e+00
2.029534561274390e-03	3.690157e-02	6.028847e+00
2.039300186274390e-03	4.888571e-02	3.854267e+00
2.049065811274389e-03	6.068586e-02	1.464959e+00
2.058831436274389e-03	7.225760e-02	-1.072374e+00
2.068597061274389e-03	8.355737e-02	-3.767922e+00
2.078362686274389e-03	9.454266e-02	-6.591706e+00
2.088128311274389e-03	1.051721e-01	-9.041667e+00
2.097893936274388e-03	1.154057e-01	-1.057720e+01
2.099018141673396e-03	1.165566e-01	-1.063611e+01
2.101266552471411e-03	1.188409e-01	-1.063438e+01
2.114757017259501e-03	1.320332e-01	-1.063470e+01
2.134288267259501e-03	1.494292e-01	-1.063492e+01
2.153819517259500e-03	1.645778e-01	-1.063503e+01
2.173350767259500e-03	1.772509e-01	-1.063509e+01
2.192882017259500e-03	1.872580e-01	-1.063511e+01
2.212413267259499e-03	1.944485e-01	-1.063513e+01
2.231944517259499e-03	1.987144e-01	-1.063513e+01
2.251475767259498e-03	1.999914e-01	-1.063513e+01
2.271007017259498e-03	1.982604e-01	-1.063513e+01
2.290538267259497e-03	1.935473e-01	-1.063512e+01
2.310069517259497e-03	1.859231e-01	-1.063511e+01
2.329600767259497e-03	1.755025e-01	-1.063507e+01
2.349132017259496e-03	1.624421e-01	-1.063501e+01
2.368663267259496e-03	1.469385e-01	-1.063488e+01
2.388194517259495e-03	1.292247e-01	-1.063460e+01
2.407725767259495e-03	1.095673e-01	-1.063396e+01
2.427257017259495e-03	8.826194e-02	-1.063241e+01
2.446788267259494e-03	6.562901e-02	-1.062852e+01
2.456553892259494e-03	5.392045e-02	-1.062463e+01
2.466319517259494e-03	4.200895e-02	-1.061799e+01
2.476085142259494e-03	2.993933e-02	-1.060479e+01
2.485850767259493e-03	1.775704e-02	-1.054203e+01
2.495616392259493e-03	5.507907e-03	-1.027098e+01
2.505382017259493e-03	-6.761953e-03	-9.565273e+00
2.515147642259493e-03	-1.900636e-02	-8.320170e+00
2.524913267259492e-03	-3.117924e-02	-6.597102e+00
2.534678892259492e-03	-4.323476e-02	-4.508640e+00
2.544444517259492e-03	-5.512756e-02	-2.174715e+00
2.554210142259492e-03	-6.681287e-02	3.229915e-01
2.563975767259492e-03	-7.824671e-02	2.978860e+00
2.573741392259491e-03	-8.938605e-02	5.772886e+00
2.583507017259491e-03	-1.001890e-01	8.414096e+00
2.593272642259491e-03	-1.106148e-01	1.051733e+01
2.594493345384491e-03	-1.118895e-01	1.063011e+01
2.611583189134491e-03	-1.290114e-01	1.063478e+01
2.631114439134490e-03	-1.467488e-01	1.063499e+01
2.650645689134490e-03	-1.622790e-01	1.063508e+01
2.670176939134490e-03	-1.753683e-01	1.063513e+01
2.689708189134489e-03	-1.858200e-01	1.063515e+01
2.709239439134489e-03	-1.934767e-01	1.063516e+01
2.728770689134488e-03	-1.982234e-01	1.063517e+01
2.748301939134488e-03	-1.999886e-01	1.063516e+01
2.767833189134488e-03	-1.987458e-01	1.063516e+01
2.787364439134487e-03	-1.945137e-01	1.063515e+01
2.806895689134487e-03	-1.873559e-01	1.063513e+01
2.826426939134486e-03	-1.773801e-01	1.063510e+01
2.845958189134486e-03	-1.647363e-01	1.063505e+01
2.865489439134485e-03	-1.496148e-01	1.063494e+01
2.885020689134485e-03	-1.322429e-01	1.063472e+01
2.904551939134485e-03	-1.128819e-01	1.063420e+01
2.924083189134484e-03	-9.182312e-02	1.063297e+01
2.943614439134484e-03	-6.938321e-02	1.062991e+01
2.953380064134484e-03	-5.775014e-02	1.062688e+01
2.963145689134483e-03	-4.589971e-02	1.062179e+01
2.972911314134483e-03	-3.387653e-02	1.061276e+01
2.982676939134483e-03	-2.172584e-02	1.058926e+01
2.992442564134483e-03	-9.493385e-03	1.046188e+01
3.002208189134483e-03	2.774803e-03	1.000927e+01
3.011973814134482e-03	1.503255e-02	9.037409e+00
3.021739439134482e-03	2.723371e-02	7.540698e+00
3.031505064134482e-03	3.933238e-02	5.623330e+00
3.041270689134482e-03	5.128301e-02	3.394072e+00
3.051036314134481e-03	6.304061e-02	9.670113e-01
3.060801939134481e-03	7.456095e-02	-1.600090e+00
3.070567564134481e-03	8.580066e-02	-4.320658e+00
3.080333189134481e-03	9.671743e-02	-7.162061e+00
3.090098814134481e-03	1.072702e-01	-9.573740e+00
3.097925217187983e-03	1.154378e-01	-1.060650e+01
3.098960331740860e-03	1.164976e-01	-1.063822e+01
3.101030560846613e-03	1.186023e-01	-1.063436e+01
3.123217560481133e-03	1.398287e-01	-1.063490e+01
3.142748810481132e-03	1.562814e-01	-1.063504e+01
3.162280060481132e-03	1.703835e-01	-1.063512e+01
3.181811310481131e-03	1.819228e-01	-1.063515e+01
3.201342560481131e-03	1.907259e-01	-1.063517e+01
3.220873810481131e-03	1.966603e-01	-1.063517e+01
3.240405060481130e-03	1.996367e-01	-1.063517e+01
3.259936310481130e-03	1.996104e-01	-1.063516e+01
3.279467560481129e-03	1.965817e-01	-1.063515e+01
3.298998810481129e-03	1.905963e-01	-1.063514e+01
3.318530060481128e-03	1.817442e-01	-1.063511e+01
3.338061310481128e-03	1.701584e-01	-1.063507e+01
3.357592560481128e-03	1.560133e-01	-1.063498e+01
3.377123810481127e-03	1.395217e-01	-1.063480e+01
3.396655060481127e-03	1.209314e-01	-1.063440e+01
3.416186310481126e-03	1.005223e-01	-1.063346e+01
3.435717560481126e-03	7.860122e-02	-1.063117e+01
3.445483185481126e-03	6.717598e-02	-1.062893e+01
3.455248810481126e-03	5.549790e-02	-1.062528e+01
3.465014435481125e-03	4.361095e-02	-1.061920e+01
3.474780060481125e-03	3.155984e-02	-1.060736e+01
3.484545685481125e-03	1.938996e-02	-1.055933e+01
3.494311310481125e-03	7.147096e-03	-1.033668e+01
3.504076935481124e-03	-5.122668e-03	-9.705103e+00
3.513842560481124e-03	-1.737315e-02	-8.531600e+00
3.523608185481124e-03	-2.955825e-02	-6.865111e+00
3.533373810481124e-03	-4.163209e-02	-4.818792e+00
3.543139435481124e-03	-5.354924e-02	-2.506150e+00
3.552905060481123e-03	-6.526484e-02	-2.172037e-02
3.562670685481123e-03	-7.673480e-02	2.608028e+00
3.572436310481123e-03	-8.791596e-02	5.380270e+00
3.582201935481123e-03	-9.876621e-02	8.111130e+00
3.591967560481123e-03	-1.092447e-01	1.048771e+01
3.593188263606123e-03	-1.105264e-01	1.062522e+01
3.610231939889314e-03	-1.277092e-01	1.063460e+01
3.629763189889314e-03	-1.455899e-01	1.063486e+01
3.649294439889313e-03	-1.612807e-01	1.063499e+01
3.668825689889313e-03	-1.745457e-01	1.063506e+01
3.688356939889312e-03	-1.851853e-01	1.063515e+01
3.707888189889312e-03	-1.930396e-01	1.063532e+01
3.727419439889312e-03	-1.979904e-01	1.063532e+01
3.746950689889311e-03	-1.999633e-01	1.063530e+01
3.766481939889311e-03	-1.989285e-01	1.063528e+01
3.786013189889310e-03	-1.949017e-01	1.063526e+01
3.805544439889310e-03	-1.879433e-01	1.063523e+01
3.825075689889310e-03	-1.781581e-01	1.063519e+01
3.844606939889309e-03	-1.656932e-01	1.063513e+01
3.864138189889309e-03	-1.507362e-01	1.063502e+01
3.883669439889308e-03	-1.335119e-01	1.063480e+01
3.903200689889308e-03	-1.142795e-01	1.063431e+01
3.922731939889307e-03	-9.332827e-02	1.063314e+01
3.942263189889307e-03	-7.097326e-02	1.063027e+01
3.952028814889307e-03	-5.937374e-02	1.062744e+01
3.961794439889307e-03	-4.755075e-02	1.062266e+01
3.971560064889306e-03	-3.554878e-02	1.061447e+01
3.981325689889306e-03	-2.341302e-02	1.059487e+01
3.991091314889306e-03	-1.118914e-02	1.048980e+01
4.000856939889306e-03	1.076857e-03	1.009376e+01
4.010622564889306e-03	1.333880e-02	9.197303e+00
4.020388189889305e-03	2.555054e-02	7.768177e+00
4.030153814889305e-03	3.766611e-02	5.902608e+00
4.039919439889305e-03	4.963992e-02	3.710354e+00
4.049685064889305e-03	6.142689e-02	1.308919e+00
4.059450689889305e-03	7.298266e-02	-1.237735e+00
4.069216314889304e-03	8.426375e-02	-3.941301e+00
4.078981939889304e-03	9.522768e-02	-6.770860e+00
4.088747564889304e-03	1.058332e-01	-9.241461e+00
4.097320122676299e-03	1.148160e-01	-1.058074e+01
4.098445339551908e-03	1.159709e-01	-1.063633e+01
4.100695773303127e-03	1.182633e-01	-1.063438e+01
4.114198375810437e-03	1.315051e-01	-1.063470e+01
4.133729625810437e-03	1.489617e-01	-1.063492e+01
4.153260875810436e-03	1.641779e-01	-1.063504e+01
4.172792125810436e-03	1.769246e-01	-1.063509e+01
4.192323375810435e-03	1.870102e-01	-1.063512e+01
4.211854625810435e-03	1.942831e-01	-1.063513e+01
4.231385875810434e-03	1.986337e-01	-1.063514e+01
4.250917125810434e-03	1.999967e-01	-1.063514e+01
4.270448375810434e-03	1.983515e-01	-1.063513e+01
4.289979625810433e-03	1.937230e-01	-1.063512e+01
4.309510875810433e-03	1.861807e-01	-1.063511e+01
4.329042125810432e-03	1.758380e-01	-1.063508e+01
4.348573375810432e-03	1.628506e-01	-1.063502e+01
4.368104625810432e-03	1.474138e-01	-1.063489e+01
4.387635875810431e-03	1.297597e-01	-1.063462e+01
4.407167125810431e-03	1.101539e-01	-1.063399e+01
4.426698375810430e-03	8.889134e-02	-1.063248e+01
4.446229625810430e-03	6.629173e-02	-1.062870e+01
4.455995250810430e-03	5.459613e-02	-1.062491e+01
4.465760875810429e-03	4.269503e-02	-1.061848e+01
4.475526500810429e-03	3.063325e-02	-1.060589e+01
4.485292125810429e-03	1.845616e-02	-1.054931e+01
4.495057750810429e-03	6.209616e-03	-1.029857e+01
4.504823375810429e-03	-6.060305e-03	-9.624358e+00
4.514589000810428e-03	-1.830742e-02	-8.409817e+00
4.524354625810428e-03	-3.048562e-02	-6.710801e+00
4.534120250810428e-03	-4.254908e-02	-4.640215e+00
4.543885875810428e-03	-5.445240e-02	-2.316125e+00
4.553651500810428e-03	-6.615078e-02	1.751180e-01
4.563417125810427e-03	-7.760017e-02	2.820721e+00
4.573182750810427e-03	-8.875750e-02	5.606349e+00
4.582948375810427e-03	-9.958076e-02	8.285799e+00
4.592714000810427e-03	-1.100292e-01	1.050516e+01
4.593934703935426e-03	-1.113070e-01	1.062830e+01
4.611024547685427e-03	-1.284742e-01	1.063466e+01
4.630555797685426e-03	-1.462709e-01	1.063504e+01
4.650087047685426e-03	-1.618677e-01	1.063515e+01
4.669618297685425e-03	-1.750298e-01	1.063519e+01
4.689149547685425e-03	-1.855592e-01	1.063521e+01
4.708680797685424e-03	-1.932977e-01	1.063521e+01
4.728212047685424e-03	-1.981288e-01	1.063521e+01
4.747743297685424e-03	-1.999799e-01	1.063520e+01
4.767274547685423e-03	-1.988231e-01	1.063519e+01
4.786805797685423e-03	-1.946758e-01	1.063518e+01
4.806337047685422e-03	-1.876004e-01	1.063516e+01
4.825868297685422e-03	-1.777033e-01	1.063513e+01
4.845399547685422e-03	-1.651334e-01	1.063507e+01
4.864930797685421e-03	-1.500797e-01	1.063497e+01
4.884462047685421e-03	-1.327687e-01	1.063474e+01
4.903993297685420e-03	-1.134607e-01	1.063424e+01
4.923524547685420e-03	-9.244620e-02	1.063303e+01
4.943055797685419e-03	-7.004119e-02	1.063005e+01
4.952821422685419e-03	-5.842189e-02	1.062711e+01
4.962587047685419e-03	-4.658270e-02	1.062215e+01
4.972352672685419e-03	-3.456819e-02	1.061347e+01
4.982118297685419e-03	-2.242356e-02	1.059177e+01
4.991883922685418e-03	-1.019454e-02	1.047407e+01
5.001649547685418e-03	2.072846e-03	1.004510e+01
5.011415172685418e-03	1.433243e-02	9.104267e+00
5.021180797685418e-03	2.653808e-02	7.635249e+00
5.030946422685418e-03	3.864384e-02	5.739059e+00
5.040712047685417e-03	5.060415e-02	3.524843e+00
5.050477672685417e-03	6.237400e-02	1.108227e+00
5.060243297685417e-03	7.390909e-02	-1.450398e+00
5.070008922685417e-03	8.516601e-02	-4.163993e+00
5.079774547685417e-03	9.610237e-02	-7.000609e+00
5.089540172685416e-03	1.066770e-01	-9.438616e+00
5.097650226021926e-03	1.151555e-01	-1.059582e+01
5.098722234113110e-03	1.162542e-01	-1.063754e+01
5.100866250295478e-03	1.184360e-01	-1.063448e+01
5.123495972389687e-03	1.400786e-01	-1.063488e+01
5.143027222389687e-03	1.564995e-01	-1.063501e+01
5.162558472389687e-03	1.705664e-01	-1.063509e+01
5.182089722389686e-03	1.820679e-01	-1.063512e+01
5.201620972389686e-03	1.908309e-01	-1.063514e+01
5.221152222389685e-03	1.967236e-01	-1.063515e+01
5.240683472389685e-03	1.996574e-01	-1.063515e+01
5.260214722389685e-03	1.995882e-01	-1.063514e+01
5.279745972389684e-03	1.965170e-01	-1.063514e+01
5.299277222389684e-03	1.904900e-01	-1.063512e+01
5.318808472389683e-03	1.815979e-01	-1.063510e+01
5.338339722389683e-03	1.699743e-01	-1.063506e+01
5.357870972389682e-03	1.557942e-01	-1.063497e+01
5.377402222389682e-03	1.392708e-01	-1.063479e+01
5.396933472389682e-03	1.206526e-01	-1.063439e+01
5.416464722389681e-03	1.002197e-01	-1.063344e+01
5.435995972389681e-03	7.827939e-02	-1.063111e+01
5.445761597389681e-03	6.684634e-02	-1.062884e+01
5.455527222389680e-03	5.516170e-02	-1.062514e+01
5.465292847389680e-03	4.326943e-02	-1.061889e+01
5.475058472389680e-03	3.121432e-02	-1.060675e+01
5.484824097389680e-03	1.904172e-02	-1.055548e+01
5.494589722389680e-03	6.797446e-03	-1.032218e+01
5.504355347389679e-03	-5.472408e-03	-9.674622e+00
5.514120972389679e-03	-1.772166e-02	-8.485806e+00
5.523886597389679e-03	-2.990422e-02	-6.807138e+00
5.533652222389679e-03	-4.197422e-02	-4.751721e+00
5.543417847389679e-03	-5.388625e-02	-2.434904e+00
5.553183472389678e-03	-6.559546e-02	5.195367e-02
5.562949097389678e-03	-7.705777e-02	2.687762e+00
5.572714722389678e-03	-8.823007e-02	5.465150e+00
5.582480347389678e-03	-9.907028e-02	8.176794e+00
5.592245972389677e-03	-1.095376e-01	1.049450e+01
5.593466675514677e-03	-1.108178e-01	1.062656e+01
5.610556519264677e-03	-1.280229e-01	1.063460e+01
5.630087769264677e-03	-1.458692e-01	1.063487e+01
5.649619019264676e-03	-1.615215e-01	1.063506e+01
