time	V(vin)	V(vo)
0.000000000000000e+00	0.000000e+00	1.020351e+00
6.761420924375045e-07	8.496853e-04	1.019885e+00
1.352284184875009e-06	1.699322e-03	1.018791e+00
2.028426277312514e-06	2.548911e-03	1.017068e+00
2.704568369750018e-06	3.398451e-03	1.014717e+00
3.380710462187522e-06	4.247942e-03	1.011738e+00
4.056852554625027e-06	5.097385e-03	1.008130e+00
4.732994647062530e-06	5.946780e-03	1.003894e+00
8.885852309907695e-06	1.116049e-02	9.735557e-01
1.324108777173465e-05	1.662005e-02	9.329062e-01
1.909768890607155e-05	2.394131e-02	8.694280e-01
2.547687197584138e-05	3.187863e-02	7.949535e-01
3.452861359823562e-05	4.305036e-02	6.857061e-01
5.405986359823562e-05	6.663484e-02	4.498871e-01
6.382548859823562e-05	7.807288e-02	3.348246e-01
7.359111359823562e-05	8.921707e-02	2.227810e-01
8.335673859823561e-05	1.000255e-01	1.142903e-01
9.312236359823561e-05	1.104574e-01	9.127434e-03
1.028879885982356e-04	1.204736e-01	-9.364326e-02
1.126536135982356e-04	1.300363e-01	-1.940244e-01
1.224192385982356e-04	1.391097e-01	-2.905346e-01
1.321848635982356e-04	1.476594e-01	-3.817695e-01
1.419504885982356e-04	1.556534e-01	-4.671658e-01
1.517161135982356e-04	1.630615e-01	-5.465354e-01
1.614817385982356e-04	1.698560e-01	-6.197330e-01
1.712473635982356e-04	1.760111e-01	-6.865875e-01
1.810129885982356e-04	1.815037e-01	-7.469043e-01
1.907786135982357e-04	1.863133e-01	-8.004909e-01
2.005442385982357e-04	1.904215e-01	-8.471702e-01
2.103098635982357e-04	1.938131e-01	-8.867821e-01
2.200754885982357e-04	1.964752e-01	-9.191877e-01
2.298411135982357e-04	1.983978e-01	-9.442726e-01
2.396067385982357e-04	1.995737e-01	-9.619484e-01
2.493723635982357e-04	1.999984e-01	-9.721532e-01
2.591379885982357e-04	1.996704e-01	-9.748526e-01
2.689036135982357e-04	1.985909e-01	-9.700401e-01
2.786692385982357e-04	1.967639e-01	-9.577374e-01
2.884348635982357e-04	1.941964e-01	-9.379944e-01
2.982004885982357e-04	1.908979e-01	-9.108893e-01
3.079661135982358e-04	1.868810e-01	-8.765283e-01
3.177317385982358e-04	1.821606e-01	-8.350463e-01
3.274973635982358e-04	1.767547e-01	-7.866061e-01
3.372629885982358e-04	1.706835e-01	-7.313991e-01
3.470286135982358e-04	1.639698e-01	-6.696454e-01
3.567942385982358e-04	1.566391e-01	-6.015956e-01
3.665598635982358e-04	1.487187e-01	-5.275335e-01
3.763254885982358e-04	1.402387e-01	-4.477853e-01
3.860911135982358e-04	1.312308e-01	-3.627267e-01
3.958567385982358e-04	1.217289e-01	-2.728061e-01
4.056223635982358e-04	1.117690e-01	-1.785653e-01
4.153879885982359e-04	1.013883e-01	-8.040917e-02
4.251536135982359e-04	9.062606e-02	2.208528e-02
4.349192385982359e-04	7.952271e-02	1.299018e-01
4.446848635982359e-04	6.812005e-02	2.428169e-01
4.544504885982359e-04	5.646101e-02	3.592125e-01
4.739817385982359e-04	3.255007e-02	5.977649e-01
4.935129885982359e-04	8.149562e-03	8.411435e-01
5.130442385982359e-04	-1.637353e-02	1.086548e+00
5.325754885982360e-04	-4.065035e-02	1.330641e+00
5.521067385982360e-04	-6.431574e-02	1.569896e+00
5.716379885982360e-04	-8.701377e-02	1.800779e+00
5.911692385982360e-04	-1.084030e-01	2.019851e+00
6.107004885982360e-04	-1.281618e-01	2.223839e+00
6.302317385982360e-04	-1.459929e-01	2.409686e+00
6.497629885982361e-04	-1.616282e-01	2.574606e+00
6.692942385982361e-04	-1.748324e-01	2.716125e+00
6.888254885982361e-04	-1.854069e-01	2.832121e+00
7.083567385982361e-04	-1.931928e-01	2.920852e+00
7.278879885982361e-04	-1.980728e-01	2.980987e+00
7.474192385982361e-04	-1.999737e-01	3.011627e+00
7.669504885982362e-04	-1.988668e-01	3.012313e+00
7.864817385982362e-04	-1.947687e-01	2.983038e+00
8.060129885982362e-04	-1.877411e-01	2.924246e+00
8.255442385982362e-04	-1.778898e-01	2.836824e+00
8.450754885982362e-04	-1.653628e-01	2.722092e+00
8.646067385982363e-04	-1.503486e-01	2.581778e+00
8.841379885982363e-04	-1.330730e-01	2.417998e+00
9.036692385982363e-04	-1.137958e-01	2.233220e+00
9.232004885982363e-04	-9.280711e-02	2.030231e+00
9.427317385982363e-04	-7.042249e-02	1.812092e+00
9.622629885982363e-04	-4.697863e-02	1.582100e+00
9.817942385982362e-04	-2.282817e-02	1.343734e+00
1.020856738598236e-03	2.613440e-02	8.564712e-01
1.040387988598236e-03	5.021007e-02	6.151156e-01
1.059919238598236e-03	7.353054e-02	3.805563e-01
1.069684863598236e-03	8.479737e-02	2.672020e-01
1.079450488598236e-03	9.574504e-02	1.572516e-01
1.089216113598236e-03	1.063323e-01	5.085211e-02
1.098981738598236e-03	1.165194e-01	-5.277975e-02
1.108747363598236e-03	1.262680e-01	-1.542355e-01
1.118512988598236e-03	1.355413e-01	-2.525047e-01
1.128278613598236e-03	1.443044e-01	-3.459590e-01
1.138044238598236e-03	1.525245e-01	-4.337225e-01
1.147809863598236e-03	1.601704e-01	-5.155203e-01
1.157575488598236e-03	1.672135e-01	-5.912064e-01
1.167341113598236e-03	1.736273e-01	-6.606189e-01
1.177106738598236e-03	1.793876e-01	-7.235734e-01
1.186872363598236e-03	1.844727e-01	-7.798752e-01
1.196637988598236e-03	1.888634e-01	-8.293380e-01
1.206403613598236e-03	1.925434e-01	-8.717948e-01
1.216169238598236e-03	1.954986e-01	-9.070981e-01
1.225934863598236e-03	1.977180e-01	-9.351233e-01
1.235700488598236e-03	1.991933e-01	-9.557717e-01
1.245466113598236e-03	1.999189e-01	-9.689706e-01
1.255231738598236e-03	1.998920e-01	-9.746745e-01
1.264997363598236e-03	1.991127e-01	-9.728658e-01
1.274762988598237e-03	1.975840e-01	-9.635548e-01
1.284528613598237e-03	1.953117e-01	-9.467801e-01
1.294294238598237e-03	1.923043e-01	-9.226086e-01
1.304059863598237e-03	1.885731e-01	-8.911353e-01
1.313825488598237e-03	1.841321e-01	-8.524838e-01
1.323591113598237e-03	1.789981e-01	-8.068056e-01
1.333356738598237e-03	1.731904e-01	-7.542804e-01
1.343122363598237e-03	1.667308e-01	-6.951171e-01
1.352887988598237e-03	1.596437e-01	-6.295537e-01
1.362653613598237e-03	1.519558e-01	-5.578601e-01
1.372419238598237e-03	1.436959e-01	-4.803451e-01
1.382184863598237e-03	1.348951e-01	-3.973613e-01
1.391950488598237e-03	1.255867e-01	-3.093239e-01
1.401716113598237e-03	1.158056e-01	-2.167436e-01
1.411481738598237e-03	1.055886e-01	-1.201430e-01
1.421247363598237e-03	9.497419e-02	-1.950091e-02
1.431012988598237e-03	8.400233e-02	8.610816e-02
1.440778613598237e-03	7.271431e-02	1.971304e-01
1.450544238598237e-03	6.115260e-02	3.123429e-01
1.470075488598237e-03	3.738308e-02	5.495873e-01
1.489606738598237e-03	1.305128e-02	7.922059e-01
1.509137988598237e-03	-1.147683e-02	1.037462e+00
1.528669238598237e-03	-3.583231e-02	1.282096e+00
1.548200488598237e-03	-5.964884e-02	1.522602e+00
1.567731738598237e-03	-8.256820e-02	1.755439e+00
1.587262988598237e-03	-1.042456e-01	1.977142e+00
1.606794238598237e-03	-1.243552e-01	2.184398e+00
1.626325488598237e-03	-1.425942e-01	2.374105e+00
1.645856738598237e-03	-1.586886e-01	2.543420e+00
1.665387988598237e-03	-1.723961e-01	2.689801e+00
1.684919238598237e-03	-1.835106e-01	2.811053e+00
1.704450488598237e-03	-1.918649e-01	2.905357e+00
1.723981738598237e-03	-1.973335e-01	2.971297e+00
1.743512988598237e-03	-1.998339e-01	3.007887e+00
1.763044238598237e-03	-1.993286e-01	3.014579e+00
1.782575488598237e-03	-1.958253e-01	2.991275e+00
1.802106738598237e-03	-1.893766e-01	2.938329e+00
1.821637988598237e-03	-1.800794e-01	2.856542e+00
1.841169238598237e-03	-1.680737e-01	2.747146e+00
1.860700488598237e-03	-1.535401e-01	2.611791e+00
1.880231738598237e-03	-1.366970e-01	2.452518e+00
1.899762988598237e-03	-1.177979e-01	2.271726e+00
1.919294238598237e-03	-9.712697e-02	2.072142e+00
1.938825488598237e-03	-7.499518e-02	1.856777e+00
1.958356738598237e-03	-5.173540e-02	1.628882e+00
1.977887988598236e-03	-2.769747e-02	1.391905e+00
1.997419238598236e-03	-3.242938e-03	1.149442e+00
2.016950488598236e-03	2.126037e-02	9.052007e-01
2.036481738598235e-03	4.544390e-02	6.629761e-01
2.056012988598235e-03	6.894390e-02	4.267199e-01
2.065778613598235e-03	8.032659e-02	3.121653e-01
2.075544238598234e-03	9.140693e-02	2.007931e-01
2.085309863598234e-03	1.021433e-01	9.301898e-02
2.095075488598234e-03	1.124951e-01	-1.159209e-02
2.104841113598234e-03	1.224236e-01	-1.139443e-01
2.114606738598234e-03	1.318913e-01	-2.136927e-01
2.124372363598233e-03	1.408626e-01	-3.092315e-01
2.134137988598233e-03	1.493037e-01	-3.993238e-01
2.143903613598233e-03	1.571828e-01	-4.835264e-01
2.153669238598233e-03	1.644704e-01	-5.616744e-01
2.163434863598233e-03	1.711389e-01	-6.336175e-01
2.173200488598232e-03	1.771633e-01	-6.991797e-01
2.182966113598232e-03	1.825209e-01	-7.581657e-01
2.192731738598232e-03	1.871915e-01	-8.103847e-01
2.202497363598232e-03	1.911576e-01	-8.556628e-01
2.212262988598231e-03	1.944042e-01	-8.938437e-01
2.222028613598231e-03	1.969192e-01	-9.247935e-01
2.231794238598231e-03	1.986929e-01	-9.484029e-01
2.241559863598231e-03	1.997188e-01	-9.645885e-01
2.251325488598231e-03	1.999931e-01	-9.732941e-01
2.261091113598230e-03	1.995146e-01	-9.744908e-01
2.270856738598230e-03	1.982851e-01	-9.681777e-01
2.280622363598230e-03	1.963094e-01	-9.543820e-01
2.290387988598230e-03	1.935948e-01	-9.331594e-01
2.300153613598230e-03	1.901516e-01	-9.045936e-01
2.309919238598229e-03	1.859926e-01	-8.687968e-01
2.319684863598229e-03	1.811337e-01	-8.259091e-01
2.329450488598229e-03	1.755930e-01	-7.760994e-01
2.339216113598229e-03	1.693914e-01	-7.195644e-01
2.348981738598229e-03	1.625522e-01	-6.565305e-01
2.358747363598228e-03	1.551012e-01	-5.872545e-01
2.368512988598228e-03	1.470665e-01	-5.120291e-01
2.378278613598228e-03	1.384783e-01	-4.311868e-01
2.388044238598228e-03	1.293688e-01	-3.451142e-01
2.397809863598228e-03	1.197724e-01	-2.542839e-01
2.407575488598227e-03	1.097253e-01	-1.592442e-01
2.417341113598227e-03	9.926512e-02	-6.028955e-02
2.427106738598227e-03	8.843136e-02	4.320332e-02
2.436872363598227e-03	7.726476e-02	1.521198e-01
2.446637988598226e-03	6.580736e-02	2.658727e-01
2.456403613598226e-03	5.410228e-02	3.827711e-01
2.475934863598226e-03	3.012604e-02	6.219252e-01
2.495466113598225e-03	5.696679e-03	8.656462e-01
2.514997363598225e-03	-1.881836e-02	1.111074e+00
2.534528613598225e-03	-4.305036e-02	1.354843e+00
2.554059863598224e-03	-6.663484e-02	1.593419e+00
2.573591113598224e-03	-8.921707e-02	1.823273e+00
2.593122363598223e-03	-1.104574e-01	2.040981e+00
2.612653613598223e-03	-1.300363e-01	2.243288e+00
2.632184863598223e-03	-1.476594e-01	2.427163e+00
2.651716113598222e-03	-1.630615e-01	2.589849e+00
2.671247363598222e-03	-1.760111e-01	2.728905e+00
2.690778613598221e-03	-1.863133e-01	2.842246e+00
2.710309863598221e-03	-1.938131e-01	2.928170e+00
2.729841113598220e-03	-1.983978e-01	2.985390e+00
2.749372363598220e-03	-1.999984e-01	3.013047e+00
2.768903613598220e-03	-1.985909e-01	3.010730e+00
2.788434863598219e-03	-1.941964e-01	2.978476e+00
2.807966113598219e-03	-1.868810e-01	2.916773e+00
2.827497363598218e-03	-1.767547e-01	2.826555e+00
2.847028613598218e-03	-1.639698e-01	2.709180e+00
2.866559863598218e-03	-1.487187e-01	2.566418e+00
2.886091113598217e-03	-1.312308e-01	2.400421e+00
2.905622363598217e-03	-1.117690e-01	2.213692e+00
2.925153613598216e-03	-9.062606e-02	2.009046e+00
2.944684863598216e-03	-6.812005e-02	1.789570e+00
2.964216113598215e-03	-4.458945e-02	1.558581e+00
2.983747363598215e-03	-2.038819e-02	1.319575e+00
3.013044238598214e-03	1.637353e-02	9.540105e-01
3.032575488598214e-03	4.065035e-02	7.110739e-01
3.052106738598214e-03	6.431574e-02	4.732945e-01
3.061872363598213e-03	7.580742e-02	3.576392e-01
3.071637988598213e-03	8.701377e-02	2.449215e-01
3.081403613598213e-03	9.789263e-02	1.357000e-01
3.091169238598213e-03	1.084030e-01	2.993915e-02
3.100934863598213e-03	1.185054e-01	-7.325317e-02
3.110700488598212e-03	1.281618e-01	-1.742000e-01
3.120466113598212e-03	1.373358e-01	-2.716226e-01
3.130231738598212e-03	1.459929e-01	-3.639804e-01
3.139997363598212e-03	1.541005e-01	-4.505641e-01
3.149762988598212e-03	1.616282e-01	-5.311514e-01
3.159528613598211e-03	1.685474e-01	-6.055968e-01
3.169294238598211e-03	1.748324e-01	-6.737326e-01
3.179059863598211e-03	1.804592e-01	-7.353718e-01
3.188825488598211e-03	1.854069e-01	-7.903202e-01
3.198591113598210e-03	1.896567e-01	-8.383948e-01
3.208356738598210e-03	1.931928e-01	-8.794321e-01
3.218122363598210e-03	1.960017e-01	-9.132889e-01
3.227887988598210e-03	1.980728e-01	-9.398459e-01
3.237653613598210e-03	1.993985e-01	-9.590093e-01
3.247419238598209e-03	1.999737e-01	-9.707119e-01
3.257184863598209e-03	1.997962e-01	-9.749138e-01
3.266950488598209e-03	1.988668e-01	-9.716030e-01
3.276716113598209e-03	1.971888e-01	-9.607953e-01
3.286481738598209e-03	1.947687e-01	-9.425349e-01
3.296247363598208e-03	1.916155e-01	-9.168946e-01
3.306012988598208e-03	1.877411e-01	-8.839749e-01
3.315778613598208e-03	1.831601e-01	-8.439050e-01
3.325544238598208e-03	1.778898e-01	-7.968420e-01
3.335309863598208e-03	1.719499e-01	-7.429717e-01
3.345075488598207e-03	1.653628e-01	-6.825082e-01
3.354841113598207e-03	1.581533e-01	-6.156961e-01
3.364606738598207e-03	1.503486e-01	-5.428120e-01
3.374372363598207e-03	1.419780e-01	-4.641731e-01
3.384137988598207e-03	1.330730e-01	-3.801433e-01
3.393903613598206e-03	1.236671e-01	-2.911537e-01
3.403669238598206e-03	1.137958e-01	-1.977324e-01
3.413434863598206e-03	1.034962e-01	-1.003577e-01
3.423200488598206e-03	9.280711e-02	1.188205e-03
3.432966113598205e-03	8.176868e-02	1.078970e-01
3.442731738598205e-03	7.042249e-02	2.198965e-01
3.452497363598205e-03	5.881123e-02	3.357320e-01
3.472028613598205e-03	3.496921e-02	5.736507e-01
3.491559863598204e-03	1.060122e-02	8.166628e-01
3.511091113598204e-03	-1.392623e-02	1.062010e+00
3.530622363598203e-03	-3.824421e-02	1.306391e+00
3.550153613598203e-03	-6.198696e-02	1.546289e+00
3.569684863598203e-03	-8.479737e-02	1.778166e+00
3.589216113598202e-03	-1.063323e-01	1.998570e+00
3.608747363598202e-03	-1.262680e-01	2.204208e+00
3.628278613598201e-03	-1.443044e-01	2.391999e+00
3.647809863598201e-03	-1.601704e-01	2.559129e+00
3.667341113598200e-03	-1.736273e-01	2.703090e+00
3.686872363598200e-03	-1.844727e-01	2.821723e+00
3.706403613598200e-03	-1.925434e-01	2.913247e+00
3.725934863598199e-03	-1.977180e-01	2.976290e+00
3.745466113598199e-03	-1.999189e-01	3.009907e+00
3.764997363598198e-03	-1.991127e-01	3.013596e+00
3.784528613598198e-03	-1.953117e-01	2.987304e+00
3.804059863598198e-03	-1.885731e-01	2.931431e+00
3.823591113598197e-03	-1.789981e-01	2.846820e+00
3.843122363598197e-03	-1.667308e-01	2.734748e+00
3.862653613598196e-03	-1.519558e-01	2.596903e+00
3.882184863598196e-03	-1.348951e-01	2.435364e+00
3.901716113598195e-03	-1.158056e-01	2.252566e+00
3.921247363598195e-03	-9.497419e-02	2.051264e+00
3.940778613598195e-03	-7.271431e-02	1.834496e+00
3.960309863598194e-03	-4.936073e-02	1.605535e+00
3.979841113598194e-03	-2.526472e-02	1.367845e+00
3.999372363598193e-03	-7.887091e-04	1.125036e+00
4.018903613598193e-03	2.369917e-02	8.808240e-01
4.038434863598193e-03	4.783059e-02	6.390142e-01
4.057966113598192e-03	7.124259e-02	4.035843e-01
4.067731738598192e-03	8.256820e-02	2.896173e-01
4.077497363598192e-03	9.358303e-02	1.789485e-01
4.087262988598192e-03	1.042456e-01	7.187552e-02
4.097028613598191e-03	1.145159e-01	-3.222635e-02
4.106794238598191e-03	1.243552e-01	-1.341457e-01
4.116559863598191e-03	1.337264e-01	-2.331908e-01
4.126325488598191e-03	1.425942e-01	-3.277081e-01
4.136091113598190e-03	1.509254e-01	-4.166420e-01
4.145856738598190e-03	1.586886e-01	-4.996450e-01
4.155622363598190e-03	1.658544e-01	-5.765663e-01
4.165387988598190e-03	1.723961e-01	-6.472481e-01
4.175153613598190e-03	1.782889e-01	-7.115080e-01
4.184919238598189e-03	1.835106e-01	-7.691550e-01
4.194684863598189e-03	1.880416e-01	-8.200005e-01
4.204450488598189e-03	1.918649e-01	-8.638713e-01
4.214216113598189e-03	1.949661e-01	-9.006160e-01
4.223981738598189e-03	1.973335e-01	-9.301057e-01
4.233747363598188e-03	1.989581e-01	-9.522361e-01
4.243512988598188e-03	1.998339e-01	-9.669294e-01
4.253278613598188e-03	1.999576e-01	-9.741346e-01
4.263044238598188e-03	1.993286e-01	-9.738285e-01
4.272809863598188e-03	1.979495e-01	-9.660158e-01
4.282575488598187e-03	1.958253e-01	-9.507294e-01
4.292341113598187e-03	1.929641e-01	-9.280305e-01
4.302106738598187e-03	1.893766e-01	-8.980086e-01
4.311872363598187e-03	1.850763e-01	-8.607816e-01
4.321637988598187e-03	1.800794e-01	-8.164951e-01
4.331403613598186e-03	1.744048e-01	-7.653236e-01
4.341169238598186e-03	1.680737e-01	-7.074698e-01
4.350934863598186e-03	1.611101e-01	-6.431659e-01
4.360700488598186e-03	1.535401e-01	-5.726752e-01
4.370466113598185e-03	1.453921e-01	-4.962981e-01
4.380231738598185e-03	1.366970e-01	-4.143770e-01
4.389997363598185e-03	1.274873e-01	-3.273122e-01
4.399762988598185e-03	1.177979e-01	-2.355955e-01
4.409528613598185e-03	1.076650e-01	-1.397706e-01
4.419294238598184e-03	9.712697e-02	-3.999012e-02
4.429059863598184e-03	8.622334e-02	6.454303e-02
4.438825488598184e-03	7.499518e-02	1.745332e-01
4.448591113598184e-03	6.348476e-02	2.890528e-01
4.468122363598183e-03	3.979132e-02	5.255769e-01
4.487653613598183e-03	1.549937e-02	7.677759e-01
4.516950488598182e-03	-2.126037e-02	1.135584e+00
4.536481738598182e-03	-4.544390e-02	1.378993e+00
4.556012988598182e-03	-6.894390e-02	1.616854e+00
4.575544238598181e-03	-9.140693e-02	1.845646e+00
4.595075488598181e-03	-1.124951e-01	2.061957e+00
4.614606738598180e-03	-1.318913e-01	2.262553e+00
4.634137988598180e-03	-1.493037e-01	2.444428e+00
4.653669238598179e-03	-1.644704e-01	2.604855e+00
4.673200488598179e-03	-1.771633e-01	2.741428e+00
4.692731738598179e-03	-1.871915e-01	2.852097e+00
4.712262988598178e-03	-1.944042e-01	2.935202e+00
4.731794238598178e-03	-1.986929e-01	2.989496e+00
4.751325488598177e-03	-1.999931e-01	3.014167e+00
4.770856738598177e-03	-1.982851e-01	3.008847e+00
4.790387988598177e-03	-1.935948e-01	2.973619e+00
4.809919238598176e-03	-1.859926e-01	2.909016e+00
4.829450488598176e-03	-1.755930e-01	2.816013e+00
4.848981738598175e-03	-1.625522e-01	2.696013e+00
4.868512988598175e-03	-1.470665e-01	2.550825e+00
4.888044238598174e-03	-1.293688e-01	2.382637e+00
4.907575488598174e-03	-1.097253e-01	2.193985e+00
4.927106738598174e-03	-8.843136e-02	1.987713e+00
4.946637988598173e-03	-6.580736e-02	1.766933e+00
4.966169238598173e-03	-4.219356e-02	1.534982e+00
4.985700488598172e-03	-1.794513e-02	1.295373e+00
5.014997363598172e-03	1.881836e-02	9.295975e-01
5.034528613598171e-03	4.305036e-02	6.869974e-01
5.054059863598171e-03	6.663484e-02	4.499582e-01
5.063825488598171e-03	7.807288e-02	3.348410e-01
5.073591113598170e-03	8.921707e-02	2.227848e-01
5.083356738598170e-03	1.000255e-01	1.142913e-01
5.093122363598170e-03	1.104574e-01	9.127675e-03
5.102887988598170e-03	1.204736e-01	-9.364319e-02
5.112653613598170e-03	1.300363e-01	-1.940243e-01
5.122419238598169e-03	1.391097e-01	-2.905346e-01
5.132184863598169e-03	1.476594e-01	-3.817695e-01
5.141950488598169e-03	1.556534e-01	-4.671658e-01
5.151716113598169e-03	1.630615e-01	-5.465354e-01
5.161481738598169e-03	1.698560e-01	-6.197330e-01
5.171247363598168e-03	1.760111e-01	-6.865875e-01
5.181012988598168e-03	1.815037e-01	-7.469043e-01
5.190778613598168e-03	1.863133e-01	-8.004909e-01
5.200544238598168e-03	1.904215e-01	-8.471702e-01
5.210309863598168e-03	1.938131e-01	-8.867821e-01
5.220075488598167e-03	1.964752e-01	-9.191877e-01
5.229841113598167e-03	1.983978e-01	-9.442726e-01
5.239606738598167e-03	1.995737e-01	-9.619484e-01
5.249372363598167e-03	1.999984e-01	-9.721532e-01
5.259137988598167e-03	1.996704e-01	-9.748526e-01
5.268903613598166e-03	1.985909e-01	-9.700401e-01
5.278669238598166e-03	1.967639e-01	-9.577374e-01
5.288434863598166e-03	1.941964e-01	-9.379944e-01
5.298200488598166e-03	1.908979e-01	-9.108893e-01
5.307966113598165e-03	1.868810e-01	-8.765283e-01
5.317731738598165e-03	1.821606e-01	-8.350463e-01
5.327497363598165e-03	1.767547e-01	-7.866061e-01
5.337262988598165e-03	1.706835e-01	-7.313991e-01
5.347028613598165e-03	1.639698e-01	-6.696454e-01
5.356794238598164e-03	1.566391e-01	-6.015956e-01
5.366559863598164e-03	1.487187e-01	-5.275335e-01
5.376325488598164e-03	1.402387e-01	-4.477853e-01
5.386091113598164e-03	1.312308e-01	-3.627267e-01
5.395856738598164e-03	1.217289e-01	-2.728061e-01
5.405622363598163e-03	1.117690e-01	-1.785653e-01
5.415387988598163e-03	1.013883e-01	-8.040917e-02
5.425153613598163e-03	9.062606e-02	2.208528e-02
5.434919238598163e-03	7.952271e-02	1.299018e-01
5.444684863598163e-03	6.812005e-02	2.428169e-01
