time	V(vin)	V(vo)
0.000000000000000e+00	-2.000000e-01	1.102715e+01
2.857142890531708e-08	-1.885714e-01	1.102892e+01
5.714285781063416e-08	-1.771429e-01	1.103067e+01
8.571428671595124e-08	-1.657143e-01	1.103239e+01
1.142857156212683e-07	-1.542857e-01	1.103409e+01
1.428571445265854e-07	-1.428571e-01	1.103577e+01
1.714285734319025e-07	-1.314286e-01	1.103743e+01
2.000000023372195e-07	-1.200000e-01	1.103906e+01
4.000000046744390e-07	-4.000000e-02	1.104975e+01
5.999999953255610e-07	4.000000e-02	1.105891e+01
9.999999766278050e-07	2.000000e-01	1.107472e+01
1.000000000000000e-06	2.000000e-01	1.107478e+01
1.000100000000000e-06	2.000000e-01	1.107466e+01
1.000112500000000e-06	2.000000e-01	1.107465e+01
6.121605357142859e-06	2.000000e-01	1.107319e+01
1.124309821428572e-05	2.000000e-01	1.107152e+01
1.636459107142858e-05	2.000000e-01	1.106963e+01
2.148608392857143e-05	2.000000e-01	1.106753e+01
2.660757678571429e-05	2.000000e-01	1.106521e+01
3.172906964285716e-05	2.000000e-01	1.106268e+01
3.685056250000000e-05	2.000000e-01	1.105993e+01
4.173337500000000e-05	2.000000e-01	1.105662e+01
4.661618750000000e-05	2.000000e-01	1.105280e+01
5.149900000000000e-05	2.000000e-01	1.104843e+01
5.638181249999999e-05	2.000000e-01	1.104351e+01
6.126462500000000e-05	2.000000e-01	1.103803e+01
6.614743750000000e-05	2.000000e-01	1.103201e+01
7.103025000000001e-05	2.000000e-01	1.102547e+01
7.591306250000001e-05	2.000000e-01	1.101842e+01
8.079587500000002e-05	2.000000e-01	1.101090e+01
8.567868750000002e-05	2.000000e-01	1.100295e+01
9.056150000000002e-05	2.000000e-01	1.099463e+01
9.544431250000003e-05	2.000000e-01	1.098597e+01
1.003271250000000e-04	2.000000e-01	1.097705e+01
1.052099375000000e-04	2.000000e-01	1.096794e+01
1.089122630369137e-04	2.000000e-01	1.096091e+01
1.130768112208168e-04	2.000000e-01	1.095291e+01
1.179448931478736e-04	2.000000e-01	1.094347e+01
1.228277056478735e-04	2.000000e-01	1.093394e+01
1.277105181478735e-04	2.000000e-01	1.092436e+01
1.325933306478736e-04	2.000000e-01	1.091474e+01
1.423589556478736e-04	2.000000e-01	1.089544e+01
1.570073931478736e-04	2.000000e-01	1.086640e+01
1.800263663621593e-04	2.000000e-01	1.082068e+01
2.030453395764450e-04	2.000000e-01	1.077497e+01
2.260643127907308e-04	2.000000e-01	1.072925e+01
2.490832860050165e-04	2.000000e-01	1.068353e+01
2.721022592193023e-04	2.000000e-01	1.063781e+01
2.951212324335880e-04	2.000000e-01	1.059209e+01
3.181402056478737e-04	2.000000e-01	1.054636e+01
5.010000000000000e-04	2.000000e-01	1.018314e+01
5.010097125041528e-04	1.961150e-01	1.018268e+01
5.010194250083054e-04	1.922300e-01	1.018223e+01
5.010291375124581e-04	1.883450e-01	1.018178e+01
5.010388500166108e-04	1.844600e-01	1.018133e+01
5.010485625207635e-04	1.805750e-01	1.018088e+01
5.010582750249161e-04	1.766900e-01	1.018044e+01
5.010679875290688e-04	1.728050e-01	1.018000e+01
5.010961342310073e-04	1.615463e-01	1.017882e+01
5.011310432711620e-04	1.475827e-01	1.017751e+01
5.011816721170177e-04	1.273312e-01	1.017593e+01
5.012461598509365e-04	1.015361e-01	1.017439e+01
5.013449961817169e-04	6.200153e-02	1.017279e+01
5.015017366780878e-04	-6.946712e-04	1.017131e+01
5.016600614672735e-04	-6.402459e-02	1.017079e+01
5.017609336767205e-04	-1.043735e-01	1.017101e+01
5.017982555811059e-04	-1.193022e-01	1.017125e+01
5.018728993898766e-04	-1.491598e-01	1.017193e+01
5.020000000000001e-04	-2.000000e-01	1.017322e+01
5.020248611702127e-04	-2.000000e-01	1.017460e+01
5.020580093971631e-04	-2.000000e-01	1.017629e+01
5.021113656992922e-04	-2.000000e-01	1.017862e+01
5.021707031837887e-04	-2.000000e-01	1.018062e+01
5.022335535064319e-04	-2.000000e-01	1.018208e+01
5.022771386022117e-04	-2.000000e-01	1.018273e+01
5.023250167868311e-04	-2.000000e-01	1.018315e+01
5.023748698018738e-04	-2.000000e-01	1.018341e+01
5.024213352533523e-04	-2.000000e-01	1.018354e+01
5.024936103948579e-04	-2.000000e-01	1.018364e+01
5.025430102676575e-04	-2.000000e-01	1.018368e+01
5.025924101404571e-04	-2.000000e-01	1.018373e+01
5.026418100132567e-04	-2.000000e-01	1.018379e+01
5.026912098860562e-04	-2.000000e-01	1.018385e+01
5.027406097588558e-04	-2.000000e-01	1.018393e+01
5.027900096316554e-04	-2.000000e-01	1.018401e+01
5.028394095044550e-04	-2.000000e-01	1.018410e+01
8.003460609321606e-04	-2.000000e-01	1.078126e+01
8.052288734321606e-04	-2.000000e-01	1.079106e+01
8.101116859321606e-04	-2.000000e-01	1.080086e+01
8.149944984321607e-04	-2.000000e-01	1.081064e+01
8.198773109321607e-04	-2.000000e-01	1.082041e+01
8.247601234321607e-04	-2.000000e-01	1.083018e+01
8.296429359321607e-04	-2.000000e-01	1.083993e+01
8.345257484321607e-04	-2.000000e-01	1.084967e+01
8.394085609321607e-04	-2.000000e-01	1.085938e+01
8.442913734321607e-04	-2.000000e-01	1.086904e+01
8.491741859321607e-04	-2.000000e-01	1.087864e+01
8.540569984321607e-04	-2.000000e-01	1.088815e+01
8.589398109321607e-04	-2.000000e-01	1.089754e+01
8.638226234321607e-04	-2.000000e-01	1.090677e+01
8.687054359321607e-04	-2.000000e-01	1.091578e+01
8.735882484321607e-04	-2.000000e-01	1.092450e+01
8.784710609321607e-04	-2.000000e-01	1.093287e+01
8.833538734321607e-04	-2.000000e-01	1.094081e+01
8.882366859321607e-04	-2.000000e-01	1.094827e+01
8.931194984321607e-04	-2.000000e-01	1.095520e+01
8.980023109321607e-04	-2.000000e-01	1.096157e+01
9.028851234321607e-04	-2.000000e-01	1.096737e+01
9.077679359321607e-04	-2.000000e-01	1.097260e+01
9.126507484321607e-04	-2.000000e-01	1.097729e+01
9.175335609321607e-04	-2.000000e-01	1.098146e+01
9.224163734321607e-04	-2.000000e-01	1.098515e+01
9.321819984321608e-04	-2.000000e-01	1.099127e+01
9.377623555750179e-04	-2.000000e-01	1.099398e+01
9.433427127178751e-04	-2.000000e-01	1.099644e+01
9.489230698607322e-04	-2.000000e-01	1.099865e+01
9.545034270035894e-04	-2.000000e-01	1.100061e+01
9.600837841464465e-04	-2.000000e-01	1.100231e+01
9.656641412893037e-04	-2.000000e-01	1.100376e+01
9.712444984321608e-04	-2.000000e-01	1.100496e+01
9.858929359321607e-04	-2.000000e-01	1.100788e+01
1.000000000000000e-03	-2.000000e-01	1.101019e+01
1.000056876623753e-03	-1.772494e-01	1.101349e+01
1.000113753247505e-03	-1.544987e-01	1.101680e+01
1.000170629871258e-03	-1.317481e-01	1.102010e+01
1.000227506495010e-03	-1.089974e-01	1.102341e+01
1.000284383118763e-03	-8.624675e-02	1.102672e+01
1.000341259742515e-03	-6.349610e-02	1.103003e+01
1.000398136366268e-03	-4.074545e-02	1.103335e+01
1.000618231682250e-03	4.729267e-02	1.104532e+01
1.000793498624897e-03	1.173994e-01	1.105292e+01
1.001000000000000e-03	2.000000e-01	1.106076e+01
1.001144550962572e-03	2.000000e-01	1.106006e+01
1.001542455827249e-03	2.000000e-01	1.105952e+01
1.004455221107957e-03	2.000000e-01	1.105754e+01
1.007727955613213e-03	2.000000e-01	1.105507e+01
1.012610768113213e-03	2.000000e-01	1.105097e+01
1.017493580613213e-03	2.000000e-01	1.104636e+01
1.022376393113213e-03	2.000000e-01	1.104119e+01
1.027259205613213e-03	2.000000e-01	1.103548e+01
1.032142018113213e-03	2.000000e-01	1.102923e+01
1.037024830613212e-03	2.000000e-01	1.102247e+01
1.041907643113212e-03	2.000000e-01	1.101521e+01
1.046790455613212e-03	2.000000e-01	1.100750e+01
1.051673268113212e-03	2.000000e-01	1.099938e+01
1.056556080613212e-03	2.000000e-01	1.099090e+01
1.061438893113212e-03	2.000000e-01	1.098213e+01
1.066321705613212e-03	2.000000e-01	1.097311e+01
1.071204518113212e-03	2.000000e-01	1.096391e+01
1.076000952547069e-03	2.000000e-01	1.095474e+01
1.080883765047069e-03	2.000000e-01	1.094529e+01
1.085766577547068e-03	2.000000e-01	1.093577e+01
1.090649390047068e-03	2.000000e-01	1.092620e+01
1.095061096834530e-03	2.000000e-01	1.091751e+01
1.104826721834530e-03	2.000000e-01	1.089822e+01
1.119475159334530e-03	2.000000e-01	1.086919e+01
1.139703953977386e-03	2.000000e-01	1.082902e+01
1.159932748620243e-03	2.000000e-01	1.078885e+01
1.180161543263100e-03	2.000000e-01	1.074867e+01
1.200390337905957e-03	2.000000e-01	1.070850e+01
1.220619132548813e-03	2.000000e-01	1.066832e+01
1.240847927191670e-03	2.000000e-01	1.062813e+01
1.261076721834527e-03	2.000000e-01	1.058795e+01
1.501000000000000e-03	2.000000e-01	1.011139e+01
1.501011462552024e-03	1.954150e-01	1.011084e+01
1.501022925104049e-03	1.908300e-01	1.011030e+01
1.501034387656073e-03	1.862449e-01	1.010977e+01
1.501045850208097e-03	1.816599e-01	1.010925e+01
1.501057312760122e-03	1.770749e-01	1.010873e+01
1.501068775312146e-03	1.724899e-01	1.010822e+01
1.501080237864171e-03	1.679049e-01	1.010772e+01
1.501111007713859e-03	1.555969e-01	1.010648e+01
1.501153231757524e-03	1.387073e-01	1.010502e+01
1.501209330805177e-03	1.162677e-01	1.010345e+01
1.501287450268716e-03	8.501989e-02	1.010188e+01
1.501410854983963e-03	3.565801e-02	1.010026e+01
1.501560318039328e-03	-2.412722e-02	1.009933e+01
1.501766012340073e-03	-1.064049e-01	1.009963e+01
1.502000000000000e-03	-2.000000e-01	1.010138e+01
1.502025285395433e-03	-2.000000e-01	1.010279e+01
1.502058999256011e-03	-2.000000e-01	1.010453e+01
1.502112312955835e-03	-2.000000e-01	1.010688e+01
1.502172100716451e-03	-2.000000e-01	1.010889e+01
1.502234996015853e-03	-2.000000e-01	1.011035e+01
1.502278391339542e-03	-2.000000e-01	1.011099e+01
1.502326528305371e-03	-2.000000e-01	1.011141e+01
1.502376259520353e-03	-2.000000e-01	1.011166e+01
1.502421632154015e-03	-2.000000e-01	1.011179e+01
1.502493101952818e-03	-2.000000e-01	1.011189e+01
1.502542016660752e-03	-2.000000e-01	1.011193e+01
1.502590931368686e-03	-2.000000e-01	1.011197e+01
1.502639846076620e-03	-2.000000e-01	1.011203e+01
1.502688760784553e-03	-2.000000e-01	1.011209e+01
1.502737675492487e-03	-2.000000e-01	1.011217e+01
1.502786590200421e-03	-2.000000e-01	1.011225e+01
1.502835504908355e-03	-2.000000e-01	1.011234e+01
1.550898938947986e-03	-2.000000e-01	1.020882e+01
1.598962372987617e-03	-2.000000e-01	1.030530e+01
1.647025807027248e-03	-2.000000e-01	1.040177e+01
1.695089241066879e-03	-2.000000e-01	1.049824e+01
1.743152675106510e-03	-2.000000e-01	1.059472e+01
1.791216109146141e-03	-2.000000e-01	1.069119e+01
1.839279543185772e-03	-2.000000e-01	1.078765e+01
1.843464811042914e-03	-2.000000e-01	1.079605e+01
1.847650078900057e-03	-2.000000e-01	1.080444e+01
1.851835346757200e-03	-2.000000e-01	1.081283e+01
1.856020614614343e-03	-2.000000e-01	1.082120e+01
1.860205882471485e-03	-2.000000e-01	1.082957e+01
1.864391150328628e-03	-2.000000e-01	1.083794e+01
1.868576418185771e-03	-2.000000e-01	1.084629e+01
1.873459230685771e-03	-2.000000e-01	1.085601e+01
1.878342043185771e-03	-2.000000e-01	1.086569e+01
1.883224855685771e-03	-2.000000e-01	1.087531e+01
1.888107668185771e-03	-2.000000e-01	1.088486e+01
1.892990480685770e-03	-2.000000e-01	1.089429e+01
1.897873293185770e-03	-2.000000e-01	1.090358e+01
1.902756105685770e-03	-2.000000e-01	1.091267e+01
1.907638918185770e-03	-2.000000e-01	1.092150e+01
1.912521730685770e-03	-2.000000e-01	1.093000e+01
1.917404543185770e-03	-2.000000e-01	1.093810e+01
1.922287355685770e-03	-2.000000e-01	1.094574e+01
1.927170168185770e-03	-2.000000e-01	1.095286e+01
1.932052980685770e-03	-2.000000e-01	1.095942e+01
1.936935793185770e-03	-2.000000e-01	1.096542e+01
1.941818605685769e-03	-2.000000e-01	1.097085e+01
1.946701418185769e-03	-2.000000e-01	1.097572e+01
1.951584230685769e-03	-2.000000e-01	1.098007e+01
1.956467043185769e-03	-2.000000e-01	1.098392e+01
1.966232668185769e-03	-2.000000e-01	1.099031e+01
1.971056572730659e-03	-2.000000e-01	1.099281e+01
1.975880477275549e-03	-2.000000e-01	1.099510e+01
1.980704381820439e-03	-2.000000e-01	1.099717e+01
1.985528286365330e-03	-2.000000e-01	1.099903e+01
1.990352190910220e-03	-2.000000e-01	1.100067e+01
1.995176095455110e-03	-2.000000e-01	1.100211e+01
2.000000000000000e-03	-2.000000e-01	1.100333e+01
2.000069836998912e-03	-1.720652e-01	1.100712e+01
2.000139673997824e-03	-1.441304e-01	1.101091e+01
2.000209510996736e-03	-1.161956e-01	1.101470e+01
2.000279347995648e-03	-8.826080e-02	1.101849e+01
2.000349184994560e-03	-6.032600e-02	1.102227e+01
2.000419021993472e-03	-3.239120e-02	1.102604e+01
2.000488858992385e-03	-4.456403e-03	1.102981e+01
2.000541714674512e-03	1.668587e-02	1.103246e+01
2.000647426038768e-03	5.897041e-02	1.103716e+01
2.000788577271488e-03	1.154309e-01	1.104252e+01
2.001000000000000e-03	2.000000e-01	1.104934e+01
2.001063426818554e-03	2.000000e-01	1.104845e+01
2.001147995909959e-03	2.000000e-01	1.104766e+01
2.001274467640448e-03	2.000000e-01	1.104705e+01
2.001684206320332e-03	2.000000e-01	1.104657e+01
2.003895729848305e-03	2.000000e-01	1.104429e+01
2.006398188458945e-03	2.000000e-01	1.104154e+01
2.011281000958945e-03	2.000000e-01	1.103579e+01
2.016163813458945e-03	2.000000e-01	1.102957e+01
2.021046625958945e-03	2.000000e-01	1.102283e+01
2.025929438458945e-03	2.000000e-01	1.101560e+01
2.030812250958945e-03	2.000000e-01	1.100792e+01
2.035695063458945e-03	2.000000e-01	1.099982e+01
2.040577875958945e-03	2.000000e-01	1.099136e+01
2.045460688458945e-03	2.000000e-01	1.098260e+01
2.050343500958945e-03	2.000000e-01	1.097359e+01
2.055226313458944e-03	2.000000e-01	1.096441e+01
2.059288498338793e-03	2.000000e-01	1.095665e+01
2.063238114905553e-03	2.000000e-01	1.094903e+01
2.068120927405553e-03	2.000000e-01	1.093953e+01
2.072710339339580e-03	2.000000e-01	1.093055e+01
2.077593151839580e-03	2.000000e-01	1.092095e+01
2.087311451847988e-03	2.000000e-01	1.090177e+01
2.101959889347988e-03	2.000000e-01	1.087275e+01
2.119398505419416e-03	2.000000e-01	1.083812e+01
2.136837121490844e-03	2.000000e-01	1.080349e+01
2.154275737562272e-03	2.000000e-01	1.076886e+01
2.171714353633700e-03	2.000000e-01	1.073423e+01
2.189152969705128e-03	2.000000e-01	1.069959e+01
2.206591585776557e-03	2.000000e-01	1.066495e+01
2.224030201847985e-03	2.000000e-01	1.063031e+01
2.501000000000000e-03	2.000000e-01	1.008016e+01
2.501009860152770e-03	1.960559e-01	1.007969e+01
2.501019720305541e-03	1.921119e-01	1.007923e+01
2.501029580458311e-03	1.881678e-01	1.007877e+01
2.501039440611082e-03	1.842238e-01	1.007832e+01
2.501049300763852e-03	1.802797e-01	1.007787e+01
2.501059160916622e-03	1.763356e-01	1.007742e+01
2.501069021069393e-03	1.723916e-01	1.007697e+01
2.501097642957329e-03	1.609428e-01	1.007578e+01
2.501133060674582e-03	1.467757e-01	1.007446e+01
2.501184415659283e-03	1.262337e-01	1.007287e+01
2.501249881214343e-03	1.000475e-01	1.007133e+01
2.501350941355983e-03	5.962346e-02	1.006973e+01
2.501506251077288e-03	-2.500431e-03	1.006830e+01
2.501668227168074e-03	-6.729086e-02	1.006780e+01
2.501760916701447e-03	-1.043667e-01	1.006804e+01
2.501814620933255e-03	-1.258484e-01	1.006841e+01
2.501892591536384e-03	-1.570366e-01	1.006913e+01
2.502000000000000e-03	-2.000000e-01	1.007024e+01
2.502024957189263e-03	-2.000000e-01	1.007162e+01
2.502058233441612e-03	-2.000000e-01	1.007331e+01
2.502111502026259e-03	-2.000000e-01	1.007565e+01
2.502170900116496e-03	-2.000000e-01	1.007764e+01
2.502233689776336e-03	-2.000000e-01	1.007910e+01
2.502277292437518e-03	-2.000000e-01	1.007974e+01
2.502325224597015e-03	-2.000000e-01	1.008017e+01
2.502375102387264e-03	-2.000000e-01	1.008043e+01
2.502421495994514e-03	-2.000000e-01	1.008056e+01
2.502493737127128e-03	-2.000000e-01	1.008066e+01
2.502543136071706e-03	-2.000000e-01	1.008070e+01
2.502592535016284e-03	-2.000000e-01	1.008075e+01
2.502641933960861e-03	-2.000000e-01	1.008081e+01
2.502691332905439e-03	-2.000000e-01	1.008087e+01
2.502740731850017e-03	-2.000000e-01	1.008095e+01
2.502790130794595e-03	-2.000000e-01	1.008103e+01
2.502839529739172e-03	-2.000000e-01	1.008112e+01
2.553012994897830e-03	-2.000000e-01	1.018184e+01
2.603186460056487e-03	-2.000000e-01	1.028255e+01
2.653359925215145e-03	-2.000000e-01	1.038326e+01
2.703533390373802e-03	-2.000000e-01	1.048397e+01
2.753706855532459e-03	-2.000000e-01	1.058468e+01
2.803880320691116e-03	-2.000000e-01	1.068538e+01
2.854053785849774e-03	-2.000000e-01	1.078609e+01
2.858936598349774e-03	-2.000000e-01	1.079589e+01
2.863819410849774e-03	-2.000000e-01	1.080568e+01
2.868702223349773e-03	-2.000000e-01	1.081545e+01
2.873585035849773e-03	-2.000000e-01	1.082522e+01
2.878467848349773e-03	-2.000000e-01	1.083498e+01
2.883350660849773e-03	-2.000000e-01	1.084472e+01
2.888233473349773e-03	-2.000000e-01	1.085445e+01
2.893116285849773e-03	-2.000000e-01	1.086414e+01
2.897999098349773e-03	-2.000000e-01	1.087377e+01
2.902881910849773e-03	-2.000000e-01	1.088333e+01
2.907764723349773e-03	-2.000000e-01	1.089279e+01
2.912647535849773e-03	-2.000000e-01	1.090211e+01
2.917530348349772e-03	-2.000000e-01	1.091123e+01
2.922413160849772e-03	-2.000000e-01	1.092011e+01
2.927295973349772e-03	-2.000000e-01	1.092867e+01
2.932178785849772e-03	-2.000000e-01	1.093684e+01
2.937061598349772e-03	-2.000000e-01	1.094455e+01
2.941944410849772e-03	-2.000000e-01	1.095175e+01
2.946827223349772e-03	-2.000000e-01	1.095841e+01
2.951710035849772e-03	-2.000000e-01	1.096450e+01
2.956592848349772e-03	-2.000000e-01	1.097001e+01
2.961475660849771e-03	-2.000000e-01	1.097497e+01
2.966358473349771e-03	-2.000000e-01	1.097940e+01
2.971241285849771e-03	-2.000000e-01	1.098333e+01
2.981006910849771e-03	-2.000000e-01	1.098986e+01
3.000000000000000e-03	-2.000000e-01	1.099866e+01
3.000070322985873e-03	-1.718708e-01	1.100234e+01
3.000140645971746e-03	-1.437416e-01	1.100596e+01
3.000210968957619e-03	-1.156124e-01	1.100953e+01
3.000281291943492e-03	-8.748322e-02	1.101305e+01
3.000351614929365e-03	-5.935402e-02	1.101652e+01
3.000421937915239e-03	-3.122483e-02	1.101993e+01
3.000492260901111e-03	-3.095640e-03	1.102329e+01
3.000652842070574e-03	6.113683e-02	1.103036e+01
3.000678837661076e-03	7.153507e-02	1.103135e+01
3.000730828842079e-03	9.233154e-02	1.103310e+01
3.000834811204087e-03	1.339245e-01	1.103613e+01
3.001000000000000e-03	2.000000e-01	1.104033e+01
3.001049556638775e-03	2.000000e-01	1.103931e+01
3.001115632157140e-03	2.000000e-01	1.103828e+01
3.001203270995615e-03	2.000000e-01	1.103743e+01
3.001304917382840e-03	2.000000e-01	1.103701e+01
3.003109013753898e-03	2.000000e-01	1.103480e+01
3.004913110124956e-03	2.000000e-01	1.103252e+01
3.006717206496013e-03	2.000000e-01	1.103017e+01
3.008521302867071e-03	2.000000e-01	1.102774e+01
3.010325399238129e-03	2.000000e-01	1.102524e+01
3.012129495609187e-03	2.000000e-01	1.102267e+01
3.013933591980245e-03	2.000000e-01	1.102002e+01
3.018816404480245e-03	2.000000e-01	1.101260e+01
3.023699216980244e-03	2.000000e-01	1.100475e+01
3.028582029480244e-03	2.000000e-01	1.099650e+01
3.033464841980244e-03	2.000000e-01	1.098791e+01
3.038347654480244e-03	2.000000e-01	1.097905e+01
3.043230466980244e-03	2.000000e-01	1.096997e+01
3.047407919800563e-03	2.000000e-01	1.096206e+01
3.051842501095253e-03	2.000000e-01	1.095356e+01
3.056725313595253e-03	2.000000e-01	1.094410e+01
3.061608126095253e-03	2.000000e-01	1.093457e+01
3.066490938595253e-03	2.000000e-01	1.092499e+01
3.071113453873020e-03	2.000000e-01	1.091589e+01
3.080468583154842e-03	2.000000e-01	1.089740e+01
3.095117020654842e-03	2.000000e-01	1.086836e+01
3.116043359940556e-03	2.000000e-01	1.082681e+01
3.136969699226270e-03	2.000000e-01	1.078525e+01
3.157896038511983e-03	2.000000e-01	1.074369e+01
3.178822377797698e-03	2.000000e-01	1.070213e+01
3.199748717083411e-03	2.000000e-01	1.066057e+01
3.220675056369125e-03	2.000000e-01	1.061900e+01
3.241601395654839e-03	2.000000e-01	1.057743e+01
3.501000000000000e-03	2.000000e-01	1.006218e+01
3.501010258702983e-03	1.958965e-01	1.006169e+01
3.501020517405966e-03	1.917930e-01	1.006121e+01
3.501030776108949e-03	1.876896e-01	1.006073e+01
3.501041034811932e-03	1.835861e-01	1.006026e+01
3.501051293514915e-03	1.794826e-01	1.005979e+01
3.501061552217897e-03	1.753791e-01	1.005933e+01
3.501071810920880e-03	1.712756e-01	1.005887e+01
3.501098765776826e-03	1.604937e-01	1.005775e+01
3.501137429246320e-03	1.450283e-01	1.005633e+01
3.501187388411256e-03	1.250446e-01	1.005481e+01
3.501257284638201e-03	9.708615e-02	1.005321e+01
3.501358290194900e-03	5.668392e-02	1.005165e+01
3.501515402639352e-03	-6.161056e-03	1.005027e+01
3.501679195363742e-03	-7.167815e-02	1.004981e+01
3.501754066667157e-03	-1.016267e-01	1.005003e+01
3.501850257393171e-03	-1.401030e-01	1.005078e+01
3.502000000000000e-03	-2.000000e-01	1.005226e+01
3.502025302109842e-03	-2.000000e-01	1.005365e+01
3.502059038256298e-03	-2.000000e-01	1.005537e+01
3.502112111880813e-03	-2.000000e-01	1.005769e+01
