time	V(vin)	V(vo)
0.000000000000000e+00	-2.000000e-01	2.011906e+00
1.464843801812776e-10	-1.994141e-01	2.011972e+00
5.859375207251105e-10	-1.976562e-01	2.012167e+00
4.687500165800884e-09	-1.812500e-01	2.014031e+00
9.375000331601768e-09	-1.625000e-01	2.016255e+00
1.875000066320354e-08	-1.250000e-01	2.020952e+00
3.210908312734510e-08	-7.156367e-02	2.028141e+00
5.202175102125687e-08	8.087005e-03	2.039401e+00
7.572597446256649e-08	1.029039e-01	2.052305e+00
1.000000000000000e-07	2.000000e-01	2.064247e+00
1.056408639090184e-07	2.000000e-01	2.063643e+00
1.282043195450919e-07	2.000000e-01	2.060689e+00
1.582889270598566e-07	2.000000e-01	2.055936e+00
2.617621083294592e-07	2.000000e-01	2.038182e+00
3.295990070558595e-07	2.000000e-01	2.027999e+00
3.957409072717215e-07	2.000000e-01	2.020382e+00
4.724469877961697e-07	2.000000e-01	2.014510e+00
5.416818387766753e-07	2.000000e-01	2.011312e+00
5.815667663677880e-07	2.000000e-01	2.010283e+00
6.175810005965855e-07	2.000000e-01	2.009774e+00
6.571995041815286e-07	2.000000e-01	2.009452e+00
6.953828175088149e-07	2.000000e-01	2.009280e+00
7.227273978141613e-07	2.000000e-01	2.009215e+00
7.477383221135171e-07	2.000000e-01	2.009194e+00
7.727492464128728e-07	2.000000e-01	2.009172e+00
7.977601707122286e-07	2.000000e-01	2.009148e+00
8.227710950115843e-07	2.000000e-01	2.009123e+00
8.477820193109400e-07	2.000000e-01	2.009096e+00
8.727929436102958e-07	2.000000e-01	2.009068e+00
8.978038679096514e-07	2.000000e-01	2.009037e+00
9.422311084199747e-07	2.000000e-01	2.008948e+00
1.004748598803444e-06	2.000000e-01	2.008780e+00
1.090775994565630e-06	2.000000e-01	2.008492e+00
1.252058688207593e-06	2.000000e-01	2.007874e+00
4.792797558863080e-06	2.000000e-01	1.993775e+00
8.333536429518567e-06	2.000000e-01	1.979732e+00
1.187427530017405e-05	2.000000e-01	1.965745e+00
1.541501417082954e-05	2.000000e-01	1.951815e+00
1.895575304148502e-05	2.000000e-01	1.937942e+00
2.249649191214051e-05	2.000000e-01	1.924124e+00
2.603723078279599e-05	2.000000e-01	1.910363e+00
8.672361471136748e-05	2.000000e-01	1.682990e+00
1.474099986399390e-04	2.000000e-01	1.467241e+00
2.080963825685105e-04	2.000000e-01	1.263116e+00
2.687827664970819e-04	2.000000e-01	1.070614e+00
3.294691504256534e-04	2.000000e-01	8.897362e-01
3.901555343542249e-04	2.000000e-01	7.204820e-01
4.508419182827963e-04	2.000000e-01	5.628515e-01
5.001000000000000e-04	2.000000e-01	4.403057e-01
5.001003084208906e-04	1.987663e-01	4.401666e-01
5.001009252626719e-04	1.962989e-01	4.398883e-01
5.001046263133598e-04	1.814947e-01	4.381848e-01
5.001095610476104e-04	1.617558e-01	4.358163e-01
5.001194305161114e-04	1.222779e-01	4.308026e-01
5.001333456693492e-04	6.661732e-02	4.232143e-01
5.001536672311409e-04	-1.466892e-02	4.116409e-01
5.001771504399352e-04	-1.086018e-01	3.988703e-01
5.002000000000000e-04	-2.000000e-01	3.877078e-01
5.002057285973825e-04	-2.000000e-01	3.883128e-01
5.002286429869125e-04	-2.000000e-01	3.912885e-01
5.002591955062859e-04	-2.000000e-01	3.960850e-01
5.003624225548307e-04	-2.000000e-01	4.136434e-01
5.004296755646690e-04	-2.000000e-01	4.235935e-01
5.004954483748560e-04	-2.000000e-01	4.310753e-01
5.005638164935142e-04	-2.000000e-01	4.363535e-01
5.006193644961506e-04	-2.000000e-01	4.390611e-01
5.006515025637694e-04	-2.000000e-01	4.400029e-01
5.006862425070591e-04	-2.000000e-01	4.406012e-01
5.007285171168747e-04	-2.000000e-01	4.410146e-01
5.007696698064568e-04	-2.000000e-01	4.412026e-01
5.008016645649790e-04	-2.000000e-01	4.412433e-01
5.008588323414811e-04	-2.000000e-01	4.411897e-01
5.009729946108465e-04	-2.000000e-01	4.410169e-01
5.010585646887190e-04	-2.000000e-01	4.409741e-01
5.011066409901594e-04	-2.000000e-01	4.409910e-01
5.011728275142782e-04	-2.000000e-01	4.410513e-01
5.012913358008036e-04	-2.000000e-01	4.412097e-01
5.031567245589757e-04	-2.000000e-01	4.441417e-01
5.050221133171479e-04	-2.000000e-01	4.470645e-01
5.068875020753200e-04	-2.000000e-01	4.499782e-01
5.087528908334923e-04	-2.000000e-01	4.528826e-01
5.106182795916644e-04	-2.000000e-01	4.557779e-01
5.124836683498366e-04	-2.000000e-01	4.586640e-01
5.143490571080087e-04	-2.000000e-01	4.615410e-01
5.837277632354360e-04	-2.000000e-01	5.642241e-01
6.531064693628634e-04	-2.000000e-01	6.610481e-01
7.224851754902908e-04	-2.000000e-01	7.520130e-01
7.918638816177181e-04	-2.000000e-01	8.371187e-01
8.612425877451454e-04	-2.000000e-01	9.163653e-01
9.306212938725728e-04	-2.000000e-01	9.897528e-01
1.000000000000000e-03	-2.000000e-01	1.057281e+00
1.000000520582059e-03	-1.979177e-01	1.057514e+00
1.000001561746178e-03	-1.937530e-01	1.057982e+00
1.000006999062399e-03	-1.720037e-01	1.060496e+00
1.000013709038368e-03	-1.451638e-01	1.063776e+00
1.000025512025259e-03	-9.795190e-02	1.069939e+00
1.000042667386619e-03	-2.933045e-02	1.079510e+00
1.000064556993345e-03	5.822797e-02	1.092101e+00
1.000073527219378e-03	9.410888e-02	1.097108e+00
1.000084686932810e-03	1.387477e-01	1.102918e+00
1.000100000000000e-03	2.000000e-01	1.109705e+00
1.000102101907902e-03	2.000000e-01	1.109489e+00
1.000121719714986e-03	2.000000e-01	1.107082e+00
1.000144140065940e-03	2.000000e-01	1.103712e+00
1.000188980767847e-03	2.000000e-01	1.096173e+00
1.000239024572486e-03	2.000000e-01	1.087505e+00
1.000300944422432e-03	2.000000e-01	1.077585e+00
1.000366319384800e-03	2.000000e-01	1.069110e+00
1.000441086640604e-03	2.000000e-01	1.062273e+00
1.000511082976330e-03	2.000000e-01	1.058250e+00
1.000559908514829e-03	2.000000e-01	1.056638e+00
1.000596528214626e-03	2.000000e-01	1.055967e+00
1.000632506822191e-03	2.000000e-01	1.055600e+00
1.000674606167661e-03	2.000000e-01	1.055374e+00
1.000706665419414e-03	2.000000e-01	1.055294e+00
1.000755902994420e-03	2.000000e-01	1.055272e+00
1.000804677956663e-03	2.000000e-01	1.055294e+00
1.000853452918906e-03	2.000000e-01	1.055290e+00
1.000902227881149e-03	2.000000e-01	1.055261e+00
1.000951002843392e-03	2.000000e-01	1.055207e+00
1.000999777805635e-03	2.000000e-01	1.055127e+00
1.001048552767878e-03	2.000000e-01	1.055022e+00
1.001097327730122e-03	2.000000e-01	1.054892e+00
1.001340025649413e-03	2.000000e-01	1.054172e+00
1.049597853773144e-03	2.000000e-01	9.118641e-01
1.097855681896874e-03	2.000000e-01	7.755245e-01
1.146113510020605e-03	2.000000e-01	6.451532e-01
1.194371338144335e-03	2.000000e-01	5.207501e-01
1.242629166268065e-03	2.000000e-01	4.023153e-01
1.290886994391795e-03	2.000000e-01	2.898489e-01
1.339144822515526e-03	2.000000e-01	1.833507e-01
1.368441697515526e-03	2.000000e-01	1.207577e-01
1.397738572515525e-03	2.000000e-01	5.996925e-02
1.412387010015525e-03	2.000000e-01	3.023536e-02
1.427035447515525e-03	2.000000e-01	9.331959e-04
1.441683885015525e-03	2.000000e-01	-2.794351e-02
1.456332322515525e-03	2.000000e-01	-5.640093e-02
1.462584847870450e-03	2.000000e-01	-6.844657e-02
1.468837373225375e-03	2.000000e-01	-8.041450e-02
1.475089898580300e-03	2.000000e-01	-9.230472e-02
1.481342423935225e-03	2.000000e-01	-1.041172e-01
1.487594949290150e-03	2.000000e-01	-1.158520e-01
1.493847474645075e-03	2.000000e-01	-1.275091e-01
1.500100000000000e-03	2.000000e-01	-1.390885e-01
1.500100316873073e-03	1.987325e-01	-1.392311e-01
1.500100950619218e-03	1.961975e-01	-1.395167e-01
1.500104753096090e-03	1.809876e-01	-1.412657e-01
1.500109823065252e-03	1.607077e-01	-1.437002e-01
1.500119963003576e-03	1.201480e-01	-1.488596e-01
1.500134162910289e-03	6.334836e-02	-1.566167e-01
1.500154676144939e-03	-1.870458e-02	-1.683161e-01
1.500176117949484e-03	-1.044718e-01	-1.799630e-01
1.500200000000000e-03	-2.000000e-01	-1.916299e-01
1.500205730124046e-03	-2.000000e-01	-1.910220e-01
1.500228650620228e-03	-2.000000e-01	-1.880352e-01
1.500259211281805e-03	-2.000000e-01	-1.832248e-01
1.500362572925966e-03	-2.000000e-01	-1.656028e-01
1.500429957771703e-03	-2.000000e-01	-1.556062e-01
1.500495858701425e-03	-2.000000e-01	-1.480833e-01
1.500564435511289e-03	-2.000000e-01	-1.427663e-01
1.500620812672141e-03	-2.000000e-01	-1.399966e-01
1.500651925324031e-03	-2.000000e-01	-1.390671e-01
1.500684666542820e-03	-2.000000e-01	-1.384790e-01
1.500725872770227e-03	-2.000000e-01	-1.380410e-01
1.500767928622607e-03	-2.000000e-01	-1.378137e-01
1.500800464026020e-03	-2.000000e-01	-1.377472e-01
1.500852208047402e-03	-2.000000e-01	-1.377594e-01
1.500953025064887e-03	-2.000000e-01	-1.378611e-01
1.501027675405373e-03	-2.000000e-01	-1.378794e-01
1.501073011910751e-03	-2.000000e-01	-1.378542e-01
1.501126500554245e-03	-2.000000e-01	-1.377940e-01
1.501211753808170e-03	-2.000000e-01	-1.376536e-01
1.501427786599571e-03	-2.000000e-01	-1.372012e-01
1.503312633827099e-03	-2.000000e-01	-1.331530e-01
1.505197481054626e-03	-2.000000e-01	-1.291162e-01
1.507082328282154e-03	-2.000000e-01	-1.250911e-01
1.508967175509681e-03	-2.000000e-01	-1.210775e-01
1.510852022737209e-03	-2.000000e-01	-1.170754e-01
1.512736869964736e-03	-2.000000e-01	-1.130850e-01
1.514621717192264e-03	-2.000000e-01	-1.091061e-01
1.542000173348477e-03	-2.000000e-01	-5.197892e-02
1.556648610848477e-03	-2.000000e-01	-2.201205e-02
1.571297048348477e-03	-2.000000e-01	7.519704e-03
1.585945485848477e-03	-2.000000e-01	3.662267e-02
1.600593923348477e-03	-2.000000e-01	6.530307e-02
1.629890798348477e-03	-2.000000e-01	1.214206e-01
1.659187673348476e-03	-2.000000e-01	1.759204e-01
1.703132985848476e-03	-2.000000e-01	2.547384e-01
1.745542559298694e-03	-2.000000e-01	3.272851e-01
1.787952132748912e-03	-2.000000e-01	3.971171e-01
1.830361706199129e-03	-2.000000e-01	4.642344e-01
1.872771279649347e-03	-2.000000e-01	5.286371e-01
1.915180853099565e-03	-2.000000e-01	5.903251e-01
1.957590426549782e-03	-2.000000e-01	6.492985e-01
2.000000000000000e-03	-2.000000e-01	7.055572e-01
2.000000530640699e-03	-1.978774e-01	7.057946e-01
2.000001591922099e-03	-1.936323e-01	7.062719e-01
2.000003714484896e-03	-1.851421e-01	7.072396e-01
2.000007346679541e-03	-1.706133e-01	7.089419e-01
2.000014611068830e-03	-1.415557e-01	7.125127e-01
2.000026816781126e-03	-9.273288e-02	7.189339e-01
2.000044624283734e-03	-2.150287e-02	7.289193e-01
2.000066717507693e-03	6.687003e-02	7.416458e-01
2.000073134211706e-03	9.253684e-02	7.451863e-01
2.000085967619730e-03	1.438705e-01	7.516080e-01
2.000100000000000e-03	2.000000e-01	7.580171e-01
2.000104209714081e-03	2.000000e-01	7.575758e-01
2.000121048570404e-03	2.000000e-01	7.554899e-01
2.000143500378835e-03	2.000000e-01	7.521376e-01
2.000188403995698e-03	2.000000e-01	7.446145e-01
2.000238087130595e-03	2.000000e-01	7.360202e-01
2.000299853231632e-03	2.000000e-01	7.261162e-01
2.000364927086082e-03	2.000000e-01	7.176571e-01
2.000439622207076e-03	2.000000e-01	7.107963e-01
2.000509477998014e-03	2.000000e-01	7.067604e-01
2.000558409665042e-03	2.000000e-01	7.051375e-01
2.000594593869839e-03	2.000000e-01	7.044722e-01
2.000629746571049e-03	2.000000e-01	7.041106e-01
2.000666474567328e-03	2.000000e-01	7.039094e-01
2.000699276156121e-03	2.000000e-01	7.038276e-01
2.000725652246848e-03	2.000000e-01	7.038079e-01
2.000751896977880e-03	2.000000e-01	7.038230e-01
2.000778141708912e-03	2.000000e-01	7.038353e-01
2.000804386439944e-03	2.000000e-01	7.038449e-01
2.000830631170976e-03	2.000000e-01	7.038517e-01
2.000856875902009e-03	2.000000e-01	7.038559e-01
2.000883120633041e-03	2.000000e-01	7.038573e-01
2.000909365364073e-03	2.000000e-01	7.038559e-01
2.000952281365889e-03	2.000000e-01	7.038205e-01
2.001000718653699e-03	2.000000e-01	7.037519e-01
2.001079337413006e-03	2.000000e-01	7.035924e-01
2.001221759144554e-03	2.000000e-01	7.032384e-01
2.005234393369726e-03	2.000000e-01	6.924792e-01
2.009247027594899e-03	2.000000e-01	6.817679e-01
2.013259661820071e-03	2.000000e-01	6.711046e-01
2.017272296045244e-03	2.000000e-01	6.604892e-01
2.021284930270416e-03	2.000000e-01	6.499218e-01
2.025297564495588e-03	2.000000e-01	6.394024e-01
2.029310198720760e-03	2.000000e-01	6.289309e-01
2.064884975506475e-03	2.000000e-01	5.378794e-01
2.100459752292189e-03	2.000000e-01	4.497469e-01
2.136034529077904e-03	2.000000e-01	3.645335e-01
2.171609305863618e-03	2.000000e-01	2.822391e-01
2.207184082649333e-03	2.000000e-01	2.028638e-01
2.242758859435048e-03	2.000000e-01	1.264075e-01
2.278333636220762e-03	2.000000e-01	5.287023e-02
2.292982073720762e-03	2.000000e-01	2.323941e-02
2.307630511220763e-03	2.000000e-01	-5.961168e-03
2.322278948720763e-03	2.000000e-01	-3.473777e-02
2.336927386220763e-03	2.000000e-01	-6.309655e-02
2.366224261220763e-03	2.000000e-01	-1.185848e-01
2.395521136220763e-03	2.000000e-01	-1.724734e-01
2.439466448720764e-03	2.000000e-01	-2.504075e-01
2.500100000000000e-03	2.000000e-01	-3.525614e-01
2.500100319987980e-03	1.987201e-01	-3.527054e-01
2.500100959963939e-03	1.961601e-01	-3.529937e-01
2.500104799819697e-03	1.808007e-01	-3.547594e-01
2.500109919627375e-03	1.603215e-01	-3.572182e-01
2.500120159242730e-03	1.193630e-01	-3.624314e-01
2.500134461416612e-03	6.215433e-02	-3.702491e-01
2.500155041896974e-03	-2.016759e-02	-3.819892e-01
2.500175977536115e-03	-1.039101e-01	-3.933525e-01
2.500200000000000e-03	-2.000000e-01	-4.050816e-01
2.500205729720555e-03	-2.000000e-01	-4.044726e-01
2.500228648602773e-03	-2.000000e-01	-4.014820e-01
2.500259207112397e-03	-2.000000e-01	-3.966672e-01
2.500362623052736e-03	-2.000000e-01	-3.790207e-01
2.500430063735750e-03	-2.000000e-01	-3.690061e-01
2.500496008106490e-03	-2.000000e-01	-3.614687e-01
2.500564659041262e-03	-2.000000e-01	-3.561377e-01
2.500621332752060e-03	-2.000000e-01	-3.533454e-01
2.500652056048764e-03	-2.000000e-01	-3.524207e-01
2.500683972771876e-03	-2.000000e-01	-3.518384e-01
2.500724775994566e-03	-2.000000e-01	-3.513960e-01
2.500771433425734e-03	-2.000000e-01	-3.511370e-01
2.500803884622651e-03	-2.000000e-01	-3.510668e-01
2.500853665938505e-03	-2.000000e-01	-3.510722e-01
2.500950351885255e-03	-2.000000e-01	-3.511510e-01
2.501023532424014e-03	-2.000000e-01	-3.511563e-01
2.501067731526310e-03	-2.000000e-01	-3.511251e-01
2.501120659322937e-03	-2.000000e-01	-3.510570e-01
2.501205616424384e-03	-2.000000e-01	-3.509016e-01
2.501435244531022e-03	-2.000000e-01	-3.503735e-01
2.505319788577998e-03	-2.000000e-01	-3.412302e-01
2.509204332624975e-03	-2.000000e-01	-3.321264e-01
2.513088876671951e-03	-2.000000e-01	-3.230622e-01
2.516973420718928e-03	-2.000000e-01	-3.140375e-01
2.520857964765905e-03	-2.000000e-01	-3.050524e-01
2.524742508812881e-03	-2.000000e-01	-2.961068e-01
2.528627052859858e-03	-2.000000e-01	-2.872007e-01
2.572572365359858e-03	-2.000000e-01	-1.885116e-01
2.601869240359858e-03	-2.000000e-01	-1.250770e-01
2.631166115359859e-03	-2.000000e-01	-6.347103e-02
2.645814552859859e-03	-2.000000e-01	-3.333731e-02
2.660462990359859e-03	-2.000000e-01	-3.641109e-03
2.675111427859859e-03	-2.000000e-01	2.562391e-02
2.689759865359859e-03	-2.000000e-01	5.446401e-02
2.719056740359859e-03	-2.000000e-01	1.108941e-01
2.748353615359860e-03	-2.000000e-01	1.656973e-01
2.792298927859860e-03	-2.000000e-01	2.449542e-01
2.821970509594166e-03	-2.000000e-01	2.964157e-01
2.851642091328471e-03	-2.000000e-01	3.464859e-01
2.881313673062777e-03	-2.000000e-01	3.951648e-01
2.910985254797083e-03	-2.000000e-01	4.424524e-01
2.940656836531389e-03	-2.000000e-01	4.883488e-01
2.970328418265695e-03	-2.000000e-01	5.328538e-01
3.000000000000000e-03	-2.000000e-01	5.759675e-01
3.000000338087563e-03	-1.986476e-01	5.761188e-01
3.000001014262688e-03	-1.959430e-01	5.764219e-01
3.000005071313439e-03	-1.797147e-01	5.782809e-01
3.000010480714440e-03	-1.580771e-01	5.808756e-01
3.000021299516441e-03	-1.148019e-01	5.863904e-01
3.000036214185577e-03	-5.514326e-02	5.945587e-01
3.000057262684221e-03	2.905074e-02	6.065837e-01
3.000075356279416e-03	1.014251e-01	6.163915e-01
3.000100000000000e-03	2.000000e-01	6.284449e-01
3.000105651227728e-03	2.000000e-01	6.278453e-01
3.000128256138641e-03	2.000000e-01	6.249054e-01
3.000158396019859e-03	2.000000e-01	6.201693e-01
3.000261639084723e-03	2.000000e-01	6.025541e-01
3.000329192403251e-03	2.000000e-01	5.924915e-01
3.000395074177179e-03	2.000000e-01	5.849854e-01
3.000471190277197e-03	2.000000e-01	5.792513e-01
3.000539925089761e-03	2.000000e-01	5.761515e-01
3.000577987710945e-03	2.000000e-01	5.752055e-01
3.000611387654416e-03	2.000000e-01	5.747585e-01
3.000647093098612e-03	2.000000e-01	5.744943e-01
3.000686676544804e-03	2.000000e-01	5.743518e-01
3.000715986719484e-03	2.000000e-01	5.743139e-01
3.000794939746116e-03	2.000000e-01	5.743508e-01
3.000895027642369e-03	2.000000e-01	5.743887e-01
3.000980724654662e-03	2.000000e-01	5.743213e-01
3.001043111689312e-03	2.000000e-01	5.742177e-01
3.001145886937714e-03	2.000000e-01	5.739956e-01
3.034752098241394e-03	2.000000e-01	4.897285e-01
3.068358309545074e-03	2.000000e-01	4.080174e-01
3.101964520848753e-03	2.000000e-01	3.288623e-01
3.135570732152434e-03	2.000000e-01	2.522632e-01
3.169176943456113e-03	2.000000e-01	1.782200e-01
3.202783154759793e-03	2.000000e-01	1.067329e-01
3.236389366063473e-03	2.000000e-01	3.780182e-02
3.251037803563473e-03	2.000000e-01	8.389793e-03
3.265686241063473e-03	2.000000e-01	-2.059518e-02
3.280334678563473e-03	2.000000e-01	-4.915930e-02
3.294983116063473e-03	2.000000e-01	-7.730868e-02
3.324279991063473e-03	2.000000e-01	-1.323872e-01
3.368225303563474e-03	2.000000e-01	-2.120422e-01
3.412170616063474e-03	2.000000e-01	-2.882776e-01
3.424731956625835e-03	2.000000e-01	-3.094560e-01
3.437293297188196e-03	2.000000e-01	-3.303814e-01
3.449854637750556e-03	2.000000e-01	-3.510539e-01
3.462415978312918e-03	2.000000e-01	-3.714733e-01
3.474977318875278e-03	2.000000e-01	-3.916398e-01
3.487538659437639e-03	2.000000e-01	-4.115533e-01
3.500100000000000e-03	2.000000e-01	-4.312139e-01
3.500100309178337e-03	1.987633e-01	-4.313530e-01
3.500100927535011e-03	1.962899e-01	-4.316314e-01
3.500104637675054e-03	1.814493e-01	-4.333354e-01
3.500109584528445e-03	1.616619e-01	-4.357051e-01
3.500119478235226e-03	1.220871e-01	-4.407221e-01
3.500133378138484e-03	6.648745e-02	-4.482895e-01
3.500153653145738e-03	-1.461258e-02	-4.598161e-01
3.500177374360157e-03	-1.094974e-01	-4.726951e-01
3.500200000000000e-03	-2.000000e-01	-4.837272e-01
3.500205722360163e-03	-2.000000e-01	-4.831190e-01
3.500228611800814e-03	-2.000000e-01	-4.801325e-01
3.500259131055016e-03	-2.000000e-01	-4.753239e-01
3.500362532904275e-03	-2.000000e-01	-4.576744e-01
3.500429988240319e-03	-2.000000e-01	-4.476497e-01
3.500495921615284e-03	-2.000000e-01	-4.401043e-01
3.500564586827020e-03	-2.000000e-01	-4.347643e-01
3.500621525218147e-03	-2.000000e-01	-4.319533e-01
3.500652114220320e-03	-2.000000e-01	-4.310295e-01
3.500683724447576e-03	-2.000000e-01	-4.304492e-01
3.500724364985095e-03	-2.000000e-01	-4.300031e-01
3.500770795426025e-03	-2.000000e-01	-4.297391e-01
3.500803362500279e-03	-2.000000e-01	-4.296648e-01
3.500853428952054e-03	-2.000000e-01	-4.296653e-01
3.500902761621107e-03	-2.000000e-01	-4.297152e-01
3.500952094290160e-03	-2.000000e-01	-4.297398e-01
3.501001426959213e-03	-2.000000e-01	-4.297389e-01
3.501050759628266e-03	-2.000000e-01	-4.297126e-01
3.501100092297318e-03	-2.000000e-01	-4.296610e-01
3.501149424966371e-03	-2.000000e-01	-4.295839e-01
3.501198757635424e-03	-2.000000e-01	-4.294814e-01
3.501314327905858e-03	-2.000000e-01	-4.292190e-01
3.502361072076716e-03	-2.000000e-01	-4.266594e-01
3.503407816247573e-03	-2.000000e-01	-4.241056e-01
3.504454560418431e-03	-2.000000e-01	-4.215577e-01
3.505501304589288e-03	-2.000000e-01	-4.190155e-01
3.506548048760145e-03	-2.000000e-01	-4.164791e-01
3.507594792931003e-03	-2.000000e-01	-4.139486e-01
3.508641537101860e-03	-2.000000e-01	-4.114238e-01
3.534547796387772e-03	-2.000000e-01	-3.496892e-01
3.560454055673685e-03	-2.000000e-01	-2.894254e-01
3.586360314959597e-03	-2.000000e-01	-2.306323e-01
3.612266574245509e-03	-2.000000e-01	-1.733100e-01
3.638172833531421e-03	-2.000000e-01	-1.174584e-01
3.664079092817333e-03	-2.000000e-01	-6.307756e-02
3.689985352103246e-03	-2.000000e-01	-1.016749e-02
3.704633789603246e-03	-2.000000e-01	1.919229e-02
3.719282227103246e-03	-2.000000e-01	4.812578e-02
3.733930664603246e-03	-2.000000e-01	7.663916e-02
3.763227539603246e-03	-2.000000e-01	1.324299e-01
3.807172852103247e-03	-2.000000e-01	2.131149e-01
3.851118164603247e-03	-2.000000e-01	2.903362e-01
3.872386998231355e-03	-2.000000e-01	3.264611e-01
3.893655831859462e-03	-2.000000e-01	3.618722e-01
