time	V(vin)	V(vo)
0.000000000000000e+00	0.000000e+00	0.000000e+00
5.485714232073797e-09	8.616976e-03	8.511004e-03
1.097142846414759e-08	1.723387e-02	1.684267e-02
1.645714269622139e-08	2.585068e-02	2.499499e-02
2.194285692829519e-08	3.446741e-02	3.296798e-02
2.742857116036899e-08	4.308406e-02	4.076162e-02
3.291428539244278e-08	5.170063e-02	4.837593e-02
3.839999962451657e-08	6.031711e-02	5.581090e-02
7.679999924903314e-08	1.206255e-01	1.043996e-01
1.344029094592228e-07	2.110569e-01	1.680187e-01
1.929966594592228e-07	3.029727e-01	2.230537e-01
2.515904094592228e-07	3.947859e-01	2.698209e-01
3.687779094592228e-07	5.779800e-01	3.523932e-01
4.273716594592228e-07	6.692988e-01	3.992728e-01
4.859654094592228e-07	7.603907e-01	4.561989e-01
5.445591594592227e-07	8.512251e-01	5.224561e-01
6.031529094592227e-07	9.417710e-01	5.948395e-01
7.203404094592226e-07	1.121875e+00	7.490118e-01
8.291573737449368e-07	1.288230e+00	8.999317e-01
9.379743380306510e-07	1.452606e+00	1.050534e+00
1.046791302316365e-06	1.615004e+00	1.200818e+00
1.155608266602079e-06	1.775423e+00	1.350785e+00
1.264425230887794e-06	1.933863e+00	1.500434e+00
1.373242195173508e-06	2.090324e+00	1.649766e+00
1.482059159459222e-06	2.244807e+00	1.798780e+00
1.724804695173508e-06	2.582893e+00	2.125172e+00
1.967550230887794e-06	2.901665e+00	2.433421e+00
2.210295766602080e-06	3.201123e+00	2.723528e+00
2.453041302316367e-06	3.481266e+00	2.995492e+00
2.695786838030653e-06	3.742095e+00	3.249313e+00
2.938532373744939e-06	3.983609e+00	3.484991e+00
3.181277909459225e-06	4.205809e+00	3.702527e+00
3.750474338030655e-06	4.621529e+00	4.108654e+00
4.319670766602085e-06	4.883481e+00	4.362447e+00
4.888867195173516e-06	4.991666e+00	4.463906e+00
5.458063623744945e-06	4.946084e+00	4.413032e+00
6.027260052316376e-06	4.746734e+00	4.209824e+00
6.596456480887807e-06	4.393617e+00	3.854283e+00
7.165652909459235e-06	3.886732e+00	3.346407e+00
7.391657373744948e-06	3.650320e+00	3.109692e+00
7.617661838030661e-06	3.398905e+00	2.858139e+00
7.843666302316373e-06	3.132486e+00	2.591750e+00
8.069670766602086e-06	2.851064e+00	2.310524e+00
8.295675230887799e-06	2.554638e+00	2.014462e+00
8.521679695173512e-06	2.243210e+00	1.703563e+00
8.747684159459223e-06	1.916777e+00	1.377827e+00
8.864871659459222e-06	1.744904e+00	1.206389e+00
8.982059159459220e-06	1.571261e+00	1.033239e+00
9.099246659459219e-06	1.395849e+00	8.583751e-01
9.216434159459218e-06	1.218668e+00	6.817987e-01
9.333621659459216e-06	1.039717e+00	5.035096e-01
9.450809159459215e-06	8.589974e-01	3.235078e-01
9.567996659459213e-06	6.765080e-01	1.417931e-01
9.685184159459212e-06	4.937058e-01	-4.016382e-02
9.777260052316354e-06	3.492913e-01	-1.838721e-01
9.869335945173496e-06	2.048866e-01	-3.275211e-01
9.961411838030638e-06	6.049170e-02	-4.711107e-01
1.005348773088778e-05	-8.389342e-02	-6.146410e-01
1.014556362374492e-05	-2.282688e-01	-7.581120e-01
1.023763951660206e-05	-3.726343e-01	-9.015237e-01
1.032971540945920e-05	-5.169901e-01	-1.044876e+00
1.049712612374492e-05	-7.794648e-01	-1.305473e+00
1.066453683803063e-05	-1.038028e+00	-1.561837e+00
1.083194755231634e-05	-1.292681e+00	-1.813966e+00
1.099935826660205e-05	-1.543422e+00	-2.061861e+00
1.116676898088777e-05	-1.790252e+00	-2.305522e+00
1.133417969517348e-05	-2.033171e+00	-2.544949e+00
1.150159040945919e-05	-2.272178e+00	-2.780143e+00
1.166900112374490e-05	-2.504639e+00	-3.010748e+00
1.183641183803062e-05	-2.728693e+00	-3.230078e+00
1.200382255231633e-05	-2.944340e+00	-3.438131e+00
1.217123326660204e-05	-3.151580e+00	-3.634908e+00
1.233864398088775e-05	-3.350414e+00	-3.820409e+00
1.250605469517346e-05	-3.540841e+00	-3.994634e+00
1.267346540945918e-05	-3.722862e+00	-4.157583e+00
1.279065290945918e-05	-3.843191e+00	-4.232913e+00
1.284924665945917e-05	-3.901412e+00	-4.109580e+00
1.290784040945917e-05	-3.958312e+00	-3.652644e+00
1.302502790945917e-05	-4.068068e+00	-2.238495e+00
1.308362165945917e-05	-4.120887e+00	-1.634583e+00
1.314221540945917e-05	-4.172311e+00	-1.166010e+00
1.320080915945917e-05	-4.222321e+00	-8.234366e-01
1.325940290945917e-05	-4.270900e+00	-5.826000e-01
1.331799665945917e-05	-4.318031e+00	-4.176053e-01
1.337659040945917e-05	-4.363700e+00	-3.063974e-01
1.343518415945917e-05	-4.407890e+00	-2.320774e-01
1.349377790945917e-05	-4.450587e+00	-1.824757e-01
1.355237165945917e-05	-4.491776e+00	-1.491707e-01
1.361096540945917e-05	-4.531442e+00	-1.264872e-01
1.366955915945916e-05	-4.569573e+00	-1.106694e-01
1.372815290945916e-05	-4.606156e+00	-9.926344e-02
1.378674665945916e-05	-4.641179e+00	-9.068026e-02
1.384534040945916e-05	-4.674628e+00	-8.389772e-02
1.390393415945916e-05	-4.706493e+00	-7.826159e-02
1.396252790945916e-05	-4.736764e+00	-7.335476e-02
1.407971540945916e-05	-4.792481e+00	-6.476546e-02
1.425549665945916e-05	-4.863858e+00	-5.321911e-02
1.437268415945916e-05	-4.903291e+00	-4.590265e-02
1.448987165945916e-05	-4.935995e+00	-3.862602e-02
1.460705915945915e-05	-4.961970e+00	-3.138921e-02
1.472424665945915e-05	-4.981217e+00	-2.419223e-02
1.484143415945915e-05	-4.993734e+00	-1.703508e-02
1.495862165945915e-05	-4.999522e+00	-9.917756e-03
1.507580915945915e-05	-4.998582e+00	-2.840257e-03
1.525996094517344e-05	-4.982854e+00	8.274444e-03
1.544411273088772e-05	-4.950882e+00	1.938916e-02
1.562826451660201e-05	-4.902666e+00	3.050390e-02
1.581241630231630e-05	-4.838204e+00	4.161864e-02
1.599656808803059e-05	-4.757499e+00	5.273341e-02
1.618071987374488e-05	-4.660549e+00	6.384819e-02
1.636487165945917e-05	-4.547354e+00	7.496299e-02
1.662435826660203e-05	-4.358752e+00	9.052717e-02
1.688384487374489e-05	-4.145234e+00	1.063967e-01
1.714333148088775e-05	-3.906801e+00	1.225715e-01
1.740281808803061e-05	-3.643453e+00	1.390516e-01
1.766230469517347e-05	-3.355190e+00	1.558371e-01
1.792179130231634e-05	-3.042012e+00	1.729278e-01
1.818127790945920e-05	-2.703918e+00	1.903239e-01
1.836542969517348e-05	-2.453983e+00	2.028583e-01
1.854958148088777e-05	-2.198038e+00	2.162985e-01
1.873373326660206e-05	-1.936083e+00	2.306444e-01
1.891788505231635e-05	-1.668116e+00	2.458960e-01
1.910203683803064e-05	-1.394139e+00	2.620535e-01
1.928618862374493e-05	-1.114152e+00	2.791166e-01
1.947034040945922e-05	-8.281533e-01	2.970856e-01
1.954567523088779e-05	-7.110662e-01	3.050775e-01
1.962101005231636e-05	-5.937454e-01	3.135780e-01
1.969634487374494e-05	-4.761911e-01	3.225871e-01
1.977167969517351e-05	-3.584032e-01	3.321049e-01
1.984701451660208e-05	-2.403816e-01	3.421312e-01
1.992234933803065e-05	-1.221265e-01	3.526660e-01
1.999768415945923e-05	-3.637713e-03	3.637095e-01
2.017346540945923e-05	2.723440e-01	3.930896e-01
2.029065290945923e-05	4.559223e-01	4.159470e-01
2.034924665945923e-05	5.474954e-01	4.292443e-01
2.040784040945923e-05	6.388828e-01	4.470100e-01
2.046643415945924e-05	7.300538e-01	4.761198e-01
2.052502790945924e-05	8.209774e-01	5.221755e-01
2.058362165945924e-05	9.116229e-01	5.833116e-01
2.064221540945924e-05	1.001960e+00	6.535422e-01
2.075940290945924e-05	1.181584e+00	8.061196e-01
2.086821987374496e-05	1.347419e+00	9.565908e-01
2.097703683803067e-05	1.511208e+00	1.106695e+00
2.108585380231639e-05	1.672951e+00	1.256433e+00
2.119467076660210e-05	1.832648e+00	1.405805e+00
2.130348773088782e-05	1.990299e+00	1.554810e+00
2.141230469517354e-05	2.145905e+00	1.703448e+00
2.152112165945925e-05	2.299464e+00	1.851719e+00
2.176386719517354e-05	2.635223e+00	2.176005e+00
2.200661273088783e-05	2.951406e+00	2.481860e+00
2.224935826660212e-05	3.248012e+00	2.769284e+00
2.249210380231641e-05	3.525042e+00	3.038277e+00
2.273484933803070e-05	3.782496e+00	3.288839e+00
2.297759487374499e-05	4.020373e+00	3.520970e+00
2.322034040945928e-05	4.238673e+00	3.734671e+00
2.378116630231644e-05	4.639393e+00	4.126045e+00
2.434199219517359e-05	4.890696e+00	4.369391e+00
2.490281808803074e-05	4.992582e+00	4.464707e+00
2.546364398088789e-05	4.945052e+00	4.411994e+00
2.602446987374505e-05	4.748104e+00	4.211251e+00
2.658529576660220e-05	4.401739e+00	3.862480e+00
2.714612165945935e-05	3.905958e+00	3.365679e+00
2.737212612374507e-05	3.671211e+00	3.130613e+00
2.759813058803079e-05	3.421337e+00	2.880588e+00
2.782413505231650e-05	3.156338e+00	2.615604e+00
2.805013951660222e-05	2.876212e+00	2.335659e+00
2.827614398088794e-05	2.580960e+00	2.040755e+00
2.850214844517366e-05	2.270581e+00	1.730891e+00
2.872815290945938e-05	1.945077e+00	1.406067e+00
2.884534040945938e-05	1.773622e+00	1.235039e+00
2.896252790945938e-05	1.600357e+00	1.062257e+00
2.907971540945938e-05	1.425283e+00	8.877222e-01
2.919690290945938e-05	1.248399e+00	7.114343e-01
2.931409040945939e-05	1.069706e+00	5.333932e-01
2.943127790945939e-05	8.892042e-01	3.535990e-01
2.954846540945939e-05	7.068925e-01	1.720516e-01
2.966565290945939e-05	5.242260e-01	-9.780806e-03
3.001721540945940e-05	-2.704177e-02	-5.581239e-01
3.011766183803083e-05	-1.851711e-01	-7.153018e-01
3.021810826660225e-05	-3.427256e-01	-8.718316e-01
3.031855469517368e-05	-4.997052e-01	-1.027713e+00
3.041900112374511e-05	-6.561100e-01	-1.182947e+00
3.051944755231654e-05	-8.119398e-01	-1.337533e+00
3.061989398088797e-05	-9.671948e-01	-1.491471e+00
3.072034040945940e-05	-1.121875e+00	-1.644760e+00
3.092960380231654e-05	-1.442771e+00	-1.963066e+00
3.113886719517367e-05	-1.754192e+00	-2.270861e+00
3.134813058803081e-05	-2.056136e+00	-2.568148e+00
3.155739398088794e-05	-2.348605e+00	-2.854924e+00
3.176665737374507e-05	-2.631597e+00	-3.131190e+00
3.197592076660221e-05	-2.905113e+00	-3.396947e+00
3.218518415945934e-05	-3.169154e+00	-3.652194e+00
3.226888951660219e-05	-3.269909e+00	-3.751447e+00
3.235259487374505e-05	-3.368238e+00	-3.844962e+00
3.243630023088790e-05	-3.464141e+00	-3.932742e+00
3.252000558803076e-05	-3.557619e+00	-4.014784e+00
3.260371094517361e-05	-3.648670e+00	-4.091090e+00
3.268741630231647e-05	-3.737294e+00	-4.161659e+00
3.277112165945932e-05	-3.823493e+00	-4.226491e+00
3.282971540945931e-05	-3.882151e+00	-4.172093e+00
3.288830915945931e-05	-3.939493e+00	-3.838516e+00
3.294690290945931e-05	-3.995500e+00	-3.195240e+00
3.300549665945931e-05	-4.050154e+00	-2.462698e+00
3.306409040945930e-05	-4.103435e+00	-1.817949e+00
3.312268415945930e-05	-4.155326e+00	-1.304801e+00
3.318127790945930e-05	-4.205809e+00	-9.232489e-01
3.323987165945930e-05	-4.254867e+00	-6.520117e-01
3.329846540945930e-05	-4.302483e+00	-4.648270e-01
3.335705915945929e-05	-4.348641e+00	-3.381007e-01
3.341565290945929e-05	-4.393325e+00	-2.532400e-01
3.347424665945929e-05	-4.436522e+00	-1.966225e-01
3.353284040945929e-05	-4.478214e+00	-1.587137e-01
3.359143415945928e-05	-4.518390e+00	-1.330397e-01
3.365002790945928e-05	-4.557034e+00	-1.152934e-01
3.370862165945928e-05	-4.594135e+00	-1.026504e-01
3.376721540945928e-05	-4.629679e+00	-9.327661e-02
3.382580915945927e-05	-4.663653e+00	-8.599013e-02
3.388440290945927e-05	-4.696048e+00	-8.003327e-02
3.394299665945927e-05	-4.726852e+00	-7.492238e-02
3.406018415945926e-05	-4.783645e+00	-6.612008e-02
3.423596540945926e-05	-4.856656e+00	-5.446319e-02
3.435315290945925e-05	-4.897195e+00	-4.712839e-02
3.447034040945925e-05	-4.931010e+00	-3.983664e-02
3.458752790945924e-05	-4.958101e+00	-3.258793e-02
3.470471540945924e-05	-4.978467e+00	-2.538226e-02
3.482190290945923e-05	-4.992108e+00	-1.821964e-02
3.493909040945923e-05	-4.999026e+00	-1.110007e-02
3.505627790945922e-05	-4.999218e+00	-4.023535e-03
3.523205915945922e-05	-4.986330e+00	6.591872e-03
3.540784040945921e-05	-4.958584e+00	1.720482e-02
3.558362165945920e-05	-4.915982e+00	2.781532e-02
3.575940290945919e-05	-4.858522e+00	3.842336e-02
3.593518415945919e-05	-4.786206e+00	4.902894e-02
3.611096540945918e-05	-4.699032e+00	5.963207e-02
3.628674665945917e-05	-4.597001e+00	7.023274e-02
3.655460380231631e-05	-4.410894e+00	8.626878e-02
3.682246094517344e-05	-4.197903e+00	1.026137e-01
3.709031808803057e-05	-3.958026e+00	1.192674e-01
3.735817523088770e-05	-3.691265e+00	1.362299e-01
3.762603237374483e-05	-3.397619e+00	1.535013e-01
3.789388951660196e-05	-3.077089e+00	1.710815e-01
3.816174665945910e-05	-2.729673e+00	1.889706e-01
3.834589844517337e-05	-2.480665e+00	2.014715e-01
3.853005023088765e-05	-2.225552e+00	2.148560e-01
3.871420201660193e-05	-1.964332e+00	2.291241e-01
3.889835380231621e-05	-1.697006e+00	2.442758e-01
3.908250558803049e-05	-1.423574e+00	2.603111e-01
3.926665737374477e-05	-1.144037e+00	2.772299e-01
3.945080915945904e-05	-8.583934e-01	2.950324e-01
3.952614398088761e-05	-7.414203e-01	3.029397e-01
3.960147880231618e-05	-6.241966e-01	3.113398e-01
3.967681362374475e-05	-5.067221e-01	3.202328e-01
3.975214844517332e-05	-3.889969e-01	3.296186e-01
3.982748326660188e-05	-2.710210e-01	3.394973e-01
3.990281808803046e-05	-1.527944e-01	3.498689e-01
3.997815290945902e-05	-3.431706e-02	3.607333e-01
4.015393415945902e-05	2.417050e-01	3.895678e-01
4.032971540945901e-05	5.169901e-01	4.245487e-01
4.038830915945901e-05	6.084428e-01	4.401798e-01
4.044690290945900e-05	6.996894e-01	4.645480e-01
4.050549665945900e-05	7.906990e-01	5.047389e-01
4.056409040945900e-05	8.814406e-01	5.615057e-01
4.062268415945900e-05	9.718835e-01	6.293149e-01
4.073987165945899e-05	1.151751e+00	7.797579e-01
4.084031808803042e-05	1.305061e+00	9.179638e-01
4.094076451660184e-05	1.456700e+00	1.056140e+00
4.104121094517326e-05	1.606666e+00	1.194286e+00
4.114165737374469e-05	1.754960e+00	1.332402e+00
4.124210380231612e-05	1.901583e+00	1.470488e+00
4.134255023088754e-05	2.046533e+00	1.608544e+00
4.144299665945896e-05	2.189811e+00	1.746570e+00
4.167737165945895e-05	2.518418e+00	2.063334e+00
4.191174665945894e-05	2.829445e+00	2.363708e+00
4.214612165945893e-05	3.122892e+00	2.647692e+00
4.238049665945893e-05	3.398760e+00	2.915285e+00
4.261487165945892e-05	3.657048e+00	3.166489e+00
4.284924665945891e-05	3.897758e+00	3.401302e+00
4.308362165945890e-05	4.120887e+00	3.619725e+00
4.366955915945887e-05	4.572697e+00	4.061289e+00
4.425549665945885e-05	4.861831e+00	4.341726e+00
4.484143415945882e-05	4.988288e+00	4.461037e+00
4.542737165945880e-05	4.952070e+00	4.419221e+00
4.601330915945878e-05	4.753176e+00	4.216279e+00
4.659924665945875e-05	4.391605e+00	3.852210e+00
4.718518415945873e-05	3.867359e+00	3.327014e+00
4.741118862374444e-05	3.629291e+00	3.088655e+00
4.763719308803014e-05	3.376343e+00	2.835583e+00
4.786319755231585e-05	3.108516e+00	2.567799e+00
4.808920201660155e-05	2.825808e+00	2.285302e+00
4.831520648088725e-05	2.528221e+00	1.988092e+00
4.854121094517296e-05	2.215753e+00	1.676169e+00
4.876721540945866e-05	1.888406e+00	1.349534e+00
4.888440290945866e-05	1.716121e+00	1.177693e+00
4.900159040945866e-05	1.542107e+00	1.004179e+00
4.911877790945865e-05	1.366364e+00	8.289934e-01
4.923596540945865e-05	1.188891e+00	6.521353e-01
4.935315290945864e-05	1.009689e+00	4.736049e-01
4.947034040945864e-05	8.287582e-01	2.934022e-01
4.958752790945863e-05	6.460980e-01	1.115271e-01
4.964612165945863e-05	5.547264e-01	2.057545e-02
4.969634487374434e-05	4.762082e-01	-5.757031e-02
4.974656808803006e-05	3.976205e-01	-1.357723e-01
4.979679130231577e-05	3.189631e-01	-2.140305e-01
4.984701451660148e-05	2.402361e-01	-2.923448e-01
4.989723773088719e-05	1.614396e-01	-3.707154e-01
4.994746094517290e-05	8.257344e-02	-4.491422e-01
4.999768415945861e-05	3.637713e-03	-5.276253e-01
5.008138951660147e-05	-1.280589e-01	-6.585394e-01
5.016509487374432e-05	-2.594405e-01	-7.890904e-01
5.024880023088717e-05	-3.905070e-01	-9.192781e-01
5.033250558803003e-05	-5.212585e-01	-1.049103e+00
5.041621094517288e-05	-6.516950e-01	-1.178564e+00
5.049991630231574e-05	-7.818165e-01	-1.307662e+00
5.058362165945859e-05	-9.116229e-01	-1.436397e+00
5.078451451660144e-05	-1.222788e+00	-1.745118e+00
5.098540737374429e-05	-1.526156e+00	-2.045307e+00
5.118630023088714e-05	-1.821727e+00	-2.336966e+00
5.138719308802999e-05	-2.109501e+00	-2.620094e+00
5.158808594517283e-05	-2.389478e+00	-2.894691e+00
5.178897880231569e-05	-2.661658e+00	-3.160757e+00
5.198987165945853e-05	-2.926040e+00	-3.418293e+00
5.209868862374424e-05	-3.063279e+00	-3.553953e+00
5.220750558802996e-05	-3.196563e+00	-3.682393e+00
5.231632255231567e-05	-3.325891e+00	-3.803611e+00
5.242513951660137e-05	-3.451265e+00	-3.917609e+00
5.253395648088708e-05	-3.572682e+00	-4.024385e+00
5.264277344517279e-05	-3.690145e+00	-4.123941e+00
5.275159040945850e-05	-3.803652e+00	-4.216275e+00
5.281018415945850e-05	-3.862744e+00	-4.223164e+00
5.286877790945850e-05	-3.920526e+00	-4.014433e+00
5.292737165945850e-05	-3.976981e+00	-3.447590e+00
5.298596540945849e-05	-4.032088e+00	-2.709886e+00
5.304455915945849e-05	-4.085828e+00	-2.027404e+00
5.310315290945849e-05	-4.138185e+00	-1.466966e+00
5.316174665945849e-05	-4.189139e+00	-1.041540e+00
5.322034040945848e-05	-4.238673e+00	-7.350312e-01
5.327893415945848e-05	-4.286772e+00	-5.216241e-01
5.333752790945848e-05	-4.333418e+00	-3.763350e-01
5.339612165945848e-05	-4.378595e+00	-2.787609e-01
5.345471540945847e-05	-4.422289e+00	-2.136329e-01
5.351330915945847e-05	-4.464485e+00	-1.701178e-01
5.357190290945847e-05	-4.505167e+00	-1.407921e-01
5.363049665945847e-05	-4.544324e+00	-1.206866e-01
5.368909040945846e-05	-4.581940e+00	-1.065282e-01
5.374768415945846e-05	-4.618004e+00	-9.618524e-02
5.380627790945846e-05	-4.652503e+00	-8.828077e-02
5.386487165945846e-05	-4.685426e+00	-8.193060e-02
5.392346540945845e-05	-4.716762e+00	-7.656960e-02
5.398205915945845e-05	-4.746499e+00	-7.183786e-02
5.409924665945845e-05	-4.801138e+00	-6.343156e-02
5.419132255231559e-05	-4.839566e+00	-5.744896e-02
5.428339844517272e-05	-4.873884e+00	-5.153623e-02
5.437547433802987e-05	-4.904091e+00	-4.569337e-02
5.446755023088700e-05	-4.930187e+00	-3.992037e-02
5.455962612374414e-05	-4.952172e+00	-3.421724e-02
5.465170201660128e-05	-4.970047e+00	-2.858398e-02
5.474377790945842e-05	-4.983810e+00	-2.302058e-02
5.489444755231556e-05	-4.997167e+00	-1.385905e-02
5.504511719517269e-05	-4.999390e+00	-4.713785e-03
5.519578683802983e-05	-4.990481e+00	4.415211e-03
5.534645648088697e-05	-4.970439e+00	1.352794e-02
5.549712612374411e-05	-4.939264e+00	2.262440e-02
5.564779576660124e-05	-4.896956e+00	3.170458e-02
5.579846540945838e-05	-4.843515e+00	4.076850e-02
5.606632255231551e-05	-4.718461e+00	5.678004e-02
5.633417969517264e-05	-4.563387e+00	7.295732e-02
5.660203683802978e-05	-4.378293e+00	8.930035e-02
5.686989398088690e-05	-4.163177e+00	1.058091e-01
5.713775112374404e-05	-3.918042e+00	1.224836e-01
5.740560826660117e-05	-3.642886e+00	1.393239e-01
5.767346540945830e-05	-3.337709e+00	1.563299e-01
5.784924665945829e-05	-3.125360e+00	1.676528e-01
5.802502790945829e-05	-2.905231e+00	1.794037e-01
5.820080915945828e-05	-2.677321e+00	1.915826e-01
5.837659040945827e-05	-2.441630e+00	2.041896e-01
5.855237165945827e-05	-2.198159e+00	2.172246e-01
5.872815290945826e-05	-1.946907e+00	2.306876e-01
5.890393415945825e-05	-1.687874e+00	2.445786e-01
5.896252790945825e-05	-1.600957e+00	2.494678e-01
5.909645648088681e-05	-1.399388e+00	2.605809e-01
5.923038505231538e-05	-1.196250e+00	2.727443e-01
5.936431362374395e-05	-9.915415e-01	2.859580e-01
5.949824219517251e-05	-7.852634e-01	3.002220e-01
5.963217076660108e-05	-5.774154e-01	3.155364e-01
5.976609933802965e-05	-3.679976e-01	3.319012e-01
5.990002790945821e-05	-1.570100e-01	3.493162e-01
5.995862165945821e-05	-6.499512e-02	3.577754e-01
5.999999999999999e-05	-2.143751e-14	3.639509e-01
