time	V(vin)	V(vo)
0.000000000000000e+00	0.000000e+00	0.000000e+00
9.765624975344167e-10	1.533981e-06	9.786398e-13
1.953124995068833e-09	3.067962e-06	1.957882e-12
9.144531226912281e-06	1.436436e-02	9.131379e-09
1.828710932882949e-05	2.872528e-02	1.847934e-08
2.742968743074671e-05	4.308581e-02	2.804585e-08
3.657226553266392e-05	5.744598e-02	3.783089e-08
4.571484363458113e-05	7.180576e-02	4.783448e-08
5.485742173649834e-05	8.616517e-02	5.805660e-08
6.399999983841553e-05	1.005242e-01	6.849727e-08
1.142786669007335e-04	1.794699e-01	1.366927e-07
1.472647638847363e-04	2.312404e-01	2.089605e-07
1.736400868285043e-04	2.726180e-01	3.261982e-07
1.946448492742581e-04	3.055569e-01	5.302285e-07
2.135809107813919e-04	3.352404e-01	9.310943e-07
2.316181579253929e-04	3.635040e-01	1.777940e-06
2.509132116589799e-04	3.937255e-01	3.738522e-06
2.685525070312967e-04	4.213410e-01	7.660424e-06
2.866608353533680e-04	4.496774e-01	1.630439e-05
3.039874054814151e-04	4.767768e-01	3.398837e-05
3.215455296938563e-04	5.042239e-01	7.191727e-05
3.387838332979536e-04	5.311562e-01	1.505155e-04
3.561708909489265e-04	5.583052e-01	3.168785e-04
3.734708806801935e-04	5.853016e-01	6.627881e-04
3.909447719596744e-04	6.125519e-01	1.386298e-03
4.085810222086509e-04	6.400366e-01	2.876323e-03
4.267208624642936e-04	6.682857e-01	5.916878e-03
4.458173197647609e-04	6.980010e-01	1.197811e-02
4.671632127791317e-04	7.311867e-01	2.394187e-02
4.940336919123727e-04	7.729145e-01	4.731081e-02
5.239272964186578e-04	8.192720e-01	8.202733e-02
5.525033004838380e-04	8.635188e-01	1.212658e-01
5.918265276295146e-04	9.242920e-01	1.796715e-01
6.387053488844121e-04	9.965572e-01	2.511865e-01
7.744152415757574e-04	1.204484e+00	4.591114e-01
1.067383991575757e-03	1.645397e+00	9.008925e-01
1.360352741575758e-03	2.072382e+00	1.329146e+00
1.653321491575758e-03	2.481824e+00	1.740245e+00
1.946290241575758e-03	2.870257e+00	2.130757e+00
2.183455420147187e-03	3.170493e+00	2.432848e+00
2.420620598718616e-03	3.449612e+00	2.714308e+00
2.657785777290045e-03	3.707612e+00	2.975140e+00
2.894950955861474e-03	3.944495e+00	3.215342e+00
3.132116134432902e-03	4.160261e+00	3.434914e+00
3.369281313004331e-03	4.354908e+00	3.633857e+00
3.606446491575759e-03	4.528438e+00	3.812170e+00
3.732004527290045e-03	4.608746e+00	3.895299e+00
3.857562563004330e-03	4.681635e+00	3.971482e+00
3.983120598718616e-03	4.747105e+00	4.040720e+00
4.108678634432901e-03	4.805155e+00	4.103012e+00
4.234236670147187e-03	4.855786e+00	4.158358e+00
4.359794705861473e-03	4.898998e+00	4.206758e+00
4.485352741575758e-03	4.934790e+00	4.248213e+00
4.680665241575757e-03	4.974860e+00	4.299412e+00
4.778321491575757e-03	4.987880e+00	4.319166e+00
4.875977741575757e-03	4.996205e+00	4.335248e+00
4.973633991575756e-03	4.999828e+00	4.347893e+00
5.071290241575756e-03	4.998746e+00	4.357403e+00
5.168946491575756e-03	4.992959e+00	4.364151e+00
5.266602741575755e-03	4.982473e+00	4.368569e+00
5.364258991575755e-03	4.967297e+00	4.371132e+00
5.461915241575755e-03	4.947446e+00	4.372318e+00
5.559571491575754e-03	4.922939e+00	4.372569e+00
5.657227741575754e-03	4.893799e+00	4.372242e+00
5.754883991575753e-03	4.860053e+00	4.371599e+00
5.850550598404648e-03	4.822559e+00	4.370814e+00
5.948206848404648e-03	4.779792e+00	4.369946e+00
6.045863098404648e-03	4.732528e+00	4.369051e+00
6.143519348404647e-03	4.680809e+00	4.368146e+00
6.241175598404647e-03	4.624684e+00	4.367240e+00
6.338831848404647e-03	4.564208e+00	4.366333e+00
6.436488098404646e-03	4.499435e+00	4.365426e+00
6.534144348404646e-03	4.430428e+00	4.364519e+00
6.813162205547502e-03	4.204827e+00	4.361928e+00
7.092180062690358e-03	3.952395e+00	4.359339e+00
7.371197919833214e-03	3.673131e+00	4.356752e+00
7.650215776976070e-03	3.367034e+00	4.354166e+00
7.929233634118927e-03	3.034106e+00	4.351582e+00
8.208251491261783e-03	2.674345e+00	4.348999e+00
8.487269348404639e-03	2.287752e+00	4.346418e+00
8.654680062690353e-03	2.049144e+00	4.344870e+00
8.822090776976066e-03	1.806579e+00	4.343323e+00
8.989501491261780e-03	1.560057e+00	4.341776e+00
9.156912205547494e-03	1.309577e+00	4.340229e+00
9.324322919833207e-03	1.055139e+00	4.338684e+00
9.491733634118921e-03	7.967444e-01	4.337138e+00
9.659144348404635e-03	5.343921e-01	4.335594e+00
9.952113098404634e-03	7.521773e-02	4.332892e+00
1.024508184840463e-02	-3.845934e-01	4.330192e+00
1.039854166983320e-02	-6.257565e-01	4.328778e+00
1.055200149126177e-02	-8.641001e-01	4.327365e+00
1.070546131269035e-02	-1.099624e+00	4.325952e+00
1.085892113411892e-02	-1.332329e+00	4.324540e+00
1.101238095554749e-02	-1.562214e+00	4.323128e+00
1.116584077697606e-02	-1.789280e+00	4.321717e+00
1.131930059840463e-02	-2.013527e+00	4.320306e+00
1.158436756269034e-02	-2.392854e+00	4.317870e+00
1.184943452697606e-02	-2.749870e+00	4.315435e+00
1.211450149126177e-02	-3.084573e+00	4.313002e+00
1.237956845554748e-02	-3.396965e+00	4.310570e+00
1.264463541983320e-02	-3.687046e+00	4.308140e+00
1.290970238411891e-02	-3.954814e+00	4.305711e+00
1.317476934840462e-02	-4.200271e+00	4.303283e+00
1.374675595554748e-02	-4.619274e+00	4.298049e+00
1.431874256269034e-02	-4.883065e+00	4.292822e+00
1.489072916983320e-02	-4.991643e+00	4.287600e+00
1.546271577697606e-02	-4.945009e+00	4.282386e+00
1.603470238411892e-02	-4.743162e+00	4.277177e+00
1.660668899126178e-02	-4.386103e+00	4.271975e+00
1.717867559840464e-02	-3.873831e+00	4.266779e+00
1.741584077697607e-02	-3.623696e+00	4.264627e+00
1.765300595554750e-02	-3.357413e+00	4.262476e+00
1.789017113411893e-02	-3.074982e+00	4.260325e+00
1.812733631269036e-02	-2.776402e+00	4.258176e+00
1.836450149126180e-02	-2.461674e+00	4.256028e+00
1.860166666983323e-02	-2.130798e+00	4.253881e+00
1.883883184840466e-02	-1.783774e+00	4.251735e+00
1.897834077697609e-02	-1.576383e+00	4.250473e+00
1.911784970554752e-02	-1.366982e+00	4.249212e+00
1.925735863411895e-02	-1.155570e+00	4.247951e+00
1.939686756269038e-02	-9.421475e-01	4.246690e+00
1.953637649126181e-02	-7.267142e-01	4.245430e+00
1.967588541983324e-02	-5.092701e-01	4.244170e+00
1.981539434840467e-02	-2.898153e-01	4.242910e+00
2.020601934840468e-02	3.233885e-01	4.239386e+00
2.035947916983325e-02	5.648358e-01	4.238002e+00
2.051293899126183e-02	8.036018e-01	4.236618e+00
2.066639881269040e-02	1.039687e+00	4.235236e+00
2.081985863411897e-02	1.273090e+00	4.233853e+00
2.097331845554755e-02	1.503812e+00	4.232471e+00
2.112677827697612e-02	1.731853e+00	4.231089e+00
2.128023809840469e-02	1.957212e+00	4.229708e+00
2.154530506269041e-02	2.338816e+00	4.227324e+00
2.181037202697613e-02	2.698430e+00	4.224940e+00
2.207543899126185e-02	3.036055e+00	4.222558e+00
2.234050595554757e-02	3.351692e+00	4.220178e+00
2.260557291983328e-02	3.645340e+00	4.217798e+00
2.287063988411900e-02	3.916999e+00	4.215420e+00
2.313570684840472e-02	4.166668e+00	4.213044e+00
2.323336309840472e-02	4.249488e+00	4.212169e+00
2.333101934840472e-02	4.328309e+00	4.211294e+00
2.342867559840472e-02	4.403055e+00	4.210419e+00
2.352633184840473e-02	4.473658e+00	4.209544e+00
2.362398809840473e-02	4.540050e+00	4.208672e+00
2.372164434840473e-02	4.602170e+00	4.207809e+00
2.381930059840473e-02	4.659957e+00	4.206990e+00
2.391695684840473e-02	4.713359e+00	4.206313e+00
2.399779044270768e-02	4.754209e+00	4.206054e+00
2.406176532787462e-02	4.784367e+00	4.206393e+00
2.412786059255775e-02	4.813494e+00	4.207878e+00
2.419990214558310e-02	4.842877e+00	4.211969e+00
2.429603460656614e-02	4.878221e+00	4.222528e+00
2.439369085656614e-02	4.909570e+00	4.239023e+00
2.448452521584473e-02	4.934581e+00	4.258408e+00
2.458218146584473e-02	4.956988e+00	4.280672e+00
2.467983771584473e-02	4.974730e+00	4.301822e+00
2.477749396584474e-02	4.987789e+00	4.320458e+00
2.487515021584474e-02	4.996154e+00	4.336011e+00
2.497280646584474e-02	4.999817e+00	4.348396e+00
2.507046271584474e-02	4.998775e+00	4.357778e+00
2.516811896584474e-02	4.993028e+00	4.364463e+00
2.526577521584474e-02	4.982581e+00	4.368849e+00
2.536343146584474e-02	4.967445e+00	4.371396e+00
2.546108771584474e-02	4.947634e+00	4.372576e+00
2.555874396584475e-02	4.923167e+00	4.372825e+00
2.565640021584475e-02	4.894065e+00	4.372498e+00
2.575405646584475e-02	4.860358e+00	4.371855e+00
2.584457288719439e-02	4.825029e+00	4.371115e+00
2.594222913719439e-02	4.782540e+00	4.370247e+00
2.603988538719439e-02	4.735549e+00	4.369353e+00
2.613754163719439e-02	4.684102e+00	4.368449e+00
2.623519788719440e-02	4.628245e+00	4.367543e+00
2.633285413719440e-02	4.568033e+00	4.366635e+00
2.643051038719440e-02	4.503522e+00	4.365728e+00
2.652816663719440e-02	4.434772e+00	4.364821e+00
2.680718449433726e-02	4.209896e+00	4.362230e+00
2.708620235148012e-02	3.958136e+00	4.359641e+00
2.736522020862298e-02	3.679494e+00	4.357054e+00
2.764423806576585e-02	3.373969e+00	4.354468e+00
2.792325592290871e-02	3.041561e+00	4.351883e+00
2.820227378005157e-02	2.682271e+00	4.349301e+00
2.848129163719443e-02	2.296097e+00	4.346719e+00
2.864870235148015e-02	2.057705e+00	4.345171e+00
2.881611306576586e-02	1.815331e+00	4.343624e+00
2.898352378005158e-02	1.568975e+00	4.342077e+00
2.915093449433730e-02	1.318636e+00	4.340530e+00
2.931834520862301e-02	1.064315e+00	4.338984e+00
2.948575592290873e-02	8.060124e-01	4.337439e+00
2.965316663719444e-02	5.437272e-01	4.335894e+00
2.994613538719445e-02	8.460630e-02	4.333192e+00
3.023910413719445e-02	-3.752308e-01	4.330492e+00
3.039256395862303e-02	-6.164397e-01	4.329078e+00
3.054602378005160e-02	-8.548503e-01	4.327665e+00
3.069948360148017e-02	-1.090463e+00	4.326252e+00
3.085294342290875e-02	-1.323277e+00	4.324840e+00
3.100640324433732e-02	-1.553292e+00	4.323428e+00
3.115986306576590e-02	-1.780509e+00	4.322016e+00
3.131332288719447e-02	-2.004928e+00	4.320605e+00
3.157838985148018e-02	-2.384608e+00	4.318169e+00
3.184345681576591e-02	-2.742024e+00	4.315734e+00
3.210852378005162e-02	-3.077179e+00	4.313301e+00
3.237359074433734e-02	-3.390070e+00	4.310869e+00
3.263865770862306e-02	-3.680699e+00	4.308438e+00
3.290372467290878e-02	-3.949066e+00	4.306009e+00
3.316879163719449e-02	-4.195170e+00	4.303581e+00
3.374077824433736e-02	-4.615797e+00	4.298347e+00
3.431276485148022e-02	-4.881195e+00	4.293119e+00
3.488475145862309e-02	-4.991365e+00	4.287898e+00
3.545673806576596e-02	-4.946307e+00	4.282682e+00
3.602872467290882e-02	-4.746020e+00	4.277474e+00
3.660071128005168e-02	-4.390504e+00	4.272271e+00
3.717269788719455e-02	-3.879761e+00	4.267075e+00
3.740986306576598e-02	-3.630157e+00	4.264922e+00
3.764702824433742e-02	-3.364364e+00	4.262771e+00
3.788419342290885e-02	-3.082380e+00	4.260621e+00
3.812135860148028e-02	-2.784206e+00	4.258471e+00
3.835852378005171e-02	-2.469842e+00	4.256323e+00
3.859568895862314e-02	-2.139287e+00	4.254176e+00
3.883285413719458e-02	-1.792542e+00	4.252030e+00
3.897236306576601e-02	-1.585291e+00	4.250768e+00
3.911187199433744e-02	-1.376012e+00	4.249506e+00
3.925138092290887e-02	-1.164704e+00	4.248245e+00
3.939088985148029e-02	-9.513674e-01	4.246985e+00
3.953039878005173e-02	-7.360028e-01	4.245724e+00
3.966990770862316e-02	-5.186100e-01	4.244464e+00
3.980941663719459e-02	-2.991888e-01	4.243205e+00
4.000472913719459e-02	7.428509e-03	4.241442e+00
4.010238538719459e-02	1.611579e-01	4.240561e+00
4.020004163719459e-02	3.143766e-01	4.239680e+00
4.029769788719460e-02	4.670845e-01	4.238799e+00
4.039535413719460e-02	6.192816e-01	4.237918e+00
4.049301038719460e-02	7.709679e-01	4.237038e+00
4.059066663719460e-02	9.221435e-01	4.236158e+00
4.068832288719460e-02	1.072808e+00	4.235278e+00
4.089758628005175e-02	1.394550e+00	4.233392e+00
4.110684967290890e-02	1.707011e+00	4.231508e+00
4.131611306576604e-02	2.010191e+00	4.229624e+00
4.152537645862318e-02	2.304088e+00	4.227742e+00
4.173463985148033e-02	2.588705e+00	4.225860e+00
4.194390324433748e-02	2.864040e+00	4.223979e+00
4.215316663719462e-02	3.130094e+00	4.222099e+00
4.230662645862319e-02	3.315310e+00	4.220721e+00
4.246008628005177e-02	3.491856e+00	4.219343e+00
4.261354610148034e-02	3.659732e+00	4.217966e+00
4.276700592290892e-02	3.818938e+00	4.216589e+00
4.292046574433749e-02	3.969473e+00	4.215212e+00
4.307392556576606e-02	4.111338e+00	4.213836e+00
4.322738538719464e-02	4.244533e+00	4.212461e+00
4.332504163719464e-02	4.323600e+00	4.211586e+00
4.342269788719464e-02	4.398598e+00	4.210711e+00
4.352035413719464e-02	4.469457e+00	4.209836e+00
4.361801038719464e-02	4.536108e+00	4.208963e+00
4.371566663719464e-02	4.598491e+00	4.208099e+00
4.381332288719465e-02	4.656546e+00	4.207275e+00
4.391097913719465e-02	4.710218e+00	4.206579e+00
4.399034450058891e-02	4.750574e+00	4.206279e+00
4.405353100830716e-02	4.780593e+00	4.206523e+00
4.411882296245629e-02	4.809633e+00	4.207784e+00
4.418912800894157e-02	4.838641e+00	4.211314e+00
4.427954875422589e-02	4.872475e+00	4.220382e+00
4.437720500422589e-02	4.904601e+00	4.235967e+00
4.447127819794133e-02	4.931183e+00	4.255504e+00
4.456609283869049e-02	4.953617e+00	4.277059e+00
4.466374908869049e-02	4.972128e+00	4.298502e+00
4.476140533869049e-02	4.985960e+00	4.317602e+00
4.495671783869049e-02	4.999538e+00	4.346571e+00
4.505437408869049e-02	4.999270e+00	4.356430e+00
4.515203033869050e-02	4.994298e+00	4.363533e+00
4.524968658869050e-02	4.984625e+00	4.368268e+00
4.534734283869050e-02	4.970261e+00	4.371085e+00
4.544499908869050e-02	4.951219e+00	4.372458e+00
4.554265533869050e-02	4.927517e+00	4.372833e+00
4.564031158869050e-02	4.899178e+00	4.372593e+00
4.571878739988369e-02	4.873061e+00	4.372125e+00
4.579951353073110e-02	4.843106e+00	4.371496e+00
4.588494866377179e-02	4.808011e+00	4.370758e+00
4.597076326902283e-02	4.769273e+00	4.369983e+00
4.606841951902283e-02	4.720976e+00	4.369084e+00
4.616607576902283e-02	4.668235e+00	4.368179e+00
4.626373201902283e-02	4.611100e+00	4.367272e+00
4.636138826902284e-02	4.549626e+00	4.366365e+00
4.645904451902284e-02	4.483870e+00	4.365458e+00
4.655670076902284e-02	4.413893e+00	4.364551e+00
4.683571862616570e-02	4.185570e+00	4.361960e+00
4.711473648330856e-02	3.930607e+00	4.359371e+00
4.739375434045142e-02	3.649003e+00	4.356784e+00
4.767277219759428e-02	3.340760e+00	4.354198e+00
4.795179005473715e-02	3.005877e+00	4.351614e+00
4.823080791188000e-02	2.644353e+00	4.349031e+00
4.850982576902287e-02	2.256190e+00	4.346450e+00
4.867723648330858e-02	2.016775e+00	4.344902e+00
4.884464719759430e-02	1.773497e+00	4.343354e+00
4.901205791188001e-02	1.526355e+00	4.341808e+00
4.917946862616573e-02	1.275350e+00	4.340261e+00
4.934687934045145e-02	1.020480e+00	4.338716e+00
4.951429005473717e-02	7.617473e-01	4.337170e+00
4.968170076902288e-02	4.991504e-01	4.335626e+00
4.997466951902289e-02	3.978861e-02	4.332924e+00
5.026763826902289e-02	-4.199100e-01	4.330224e+00
5.042109809045146e-02	-6.608925e-01	4.328810e+00
5.057455791188004e-02	-8.989759e-01	4.327397e+00
5.072801773330861e-02	-1.134160e+00	4.325984e+00
5.088147755473719e-02	-1.366446e+00	4.324572e+00
5.103493737616576e-02	-1.595832e+00	4.323160e+00
5.118839719759433e-02	-1.822319e+00	4.321748e+00
5.134185701902291e-02	-2.045907e+00	4.320337e+00
5.160692398330862e-02	-2.423894e+00	4.317901e+00
5.187199094759434e-02	-2.779385e+00	4.315467e+00
5.213705791188006e-02	-3.112379e+00	4.313034e+00
5.240212487616578e-02	-3.422876e+00	4.310602e+00
5.266719184045150e-02	-3.710876e+00	4.308171e+00
5.293225880473722e-02	-3.976380e+00	4.305742e+00
5.319732576902293e-02	-4.219388e+00	4.303315e+00
5.376931237616580e-02	-4.632251e+00	4.298081e+00
5.434129898330866e-02	-4.889966e+00	4.292853e+00
5.491328559045153e-02	-4.992534e+00	4.287632e+00
5.548527219759439e-02	-4.939955e+00	4.282417e+00
5.605725880473726e-02	-4.732228e+00	4.277209e+00
5.662924541188012e-02	-4.369354e+00	4.272007e+00
5.720123201902299e-02	-3.851332e+00	4.266811e+00
5.743839719759442e-02	-3.599200e+00	4.264658e+00
5.767556237616586e-02	-3.331079e+00	4.262507e+00
5.791272755473729e-02	-3.046968e+00	4.260357e+00
5.814989273330871e-02	-2.746867e+00	4.258208e+00
5.838705791188015e-02	-2.430777e+00	4.256060e+00
5.862422309045158e-02	-2.098698e+00	4.253913e+00
5.886138826902301e-02	-1.750629e+00	4.251767e+00
5.900089719759444e-02	-1.542720e+00	4.250505e+00
5.914040612616588e-02	-1.332867e+00	4.249243e+00
5.927991505473731e-02	-1.121069e+00	4.247982e+00
5.941942398330873e-02	-9.073275e-01	4.246721e+00
5.955893291188016e-02	-6.916415e-01	4.245461e+00
5.969844184045160e-02	-4.740111e-01	4.244201e+00
5.983795076902303e-02	-2.544364e-01	4.242942e+00
5.990770523330874e-02	-1.448245e-01	4.242312e+00
5.997745969759446e-02	-3.527446e-02	4.241683e+00
6.004721416188017e-02	7.421368e-02	4.241053e+00
6.011696862616589e-02	1.836399e-01	4.240424e+00
6.018672309045160e-02	2.930043e-01	4.239794e+00
6.025647755473732e-02	4.023068e-01	4.239165e+00
6.032623201902303e-02	5.115474e-01	4.238536e+00
6.049364273330875e-02	7.740597e-01	4.237027e+00
6.066105344759447e-02	1.032675e+00	4.235518e+00
6.082846416188018e-02	1.287394e+00	4.234010e+00
6.099587487616590e-02	1.538216e+00	4.232502e+00
6.116328559045162e-02	1.785142e+00	4.230995e+00
6.133069630473734e-02	2.028171e+00	4.229488e+00
6.149810701902305e-02	2.267303e+00	4.227982e+00
6.174922309045162e-02	2.616078e+00	4.225724e+00
6.200033916188018e-02	2.943869e+00	4.223467e+00
6.225145523330875e-02	3.250675e+00	4.221211e+00
6.250257130473733e-02	3.536496e+00	4.218956e+00
6.275368737616589e-02	3.801332e+00	4.216703e+00
6.300480344759446e-02	4.045184e+00	4.214451e+00
6.325591951902303e-02	4.268052e+00	4.212200e+00
6.335357576902302e-02	4.345938e+00	4.211325e+00
6.345123201902302e-02	4.419734e+00	4.210450e+00
6.354888826902301e-02	4.489369e+00	4.209576e+00
6.364654451902300e-02	4.554780e+00	4.208704e+00
6.374420076902300e-02	4.615904e+00	4.207847e+00
6.384185701902299e-02	4.672684e+00	4.207041e+00
6.392829115400440e-02	4.719271e+00	4.206446e+00
6.398733179369591e-02	4.749096e+00	4.206239e+00
6.404974419632774e-02	4.778847e+00	4.206452e+00
6.411142034705961e-02	4.806442e+00	4.207524e+00
6.418048222465109e-02	4.835200e+00	4.210686e+00
6.426724307564093e-02	4.868101e+00	4.218791e+00
6.436489932564092e-02	4.900806e+00	4.233715e+00
6.446255557564091e-02	4.928899e+00	4.253571e+00
6.455338988552588e-02	4.950866e+00	4.274158e+00
6.465104613552587e-02	4.969985e+00	4.295821e+00
6.474870238552587e-02	4.984426e+00	4.315280e+00
6.494401488552586e-02	4.999227e+00	4.345068e+00
6.504167113552585e-02	4.999571e+00	4.355305e+00
6.513932738552584e-02	4.995211e+00	4.362745e+00
6.523698363552584e-02	4.986149e+00	4.367764e+00
6.533463988552583e-02	4.972394e+00	4.370804e+00
6.543229613552583e-02	4.953960e+00	4.372339e+00
6.552995238552582e-02	4.930863e+00	4.372821e+00
6.562760863552582e-02	4.903125e+00	4.372633e+00
6.572526488552581e-02	4.870773e+00	4.372061e+00
6.582292113552581e-02	4.833837e+00	4.371296e+00
6.591095553023595e-02	4.796639e+00	4.370526e+00
6.600861178023594e-02	4.751085e+00	4.369637e+00
6.610626803023593e-02	4.701060e+00	4.368735e+00
6.620392428023593e-02	4.646610e+00	4.367829e+00
6.630158053023592e-02	4.587787e+00	4.366922e+00
6.639923678023592e-02	4.524646e+00	4.366014e+00
6.649689303023591e-02	4.457246e+00	4.365108e+00
6.669220553023590e-02	4.309930e+00	4.363294e+00
6.695727249452160e-02	4.079094e+00	4.360834e+00
6.722233945880730e-02	3.824872e+00	4.358375e+00
6.748740642309300e-02	3.547264e+00	4.355917e+00
6.775247338737869e-02	3.246271e+00	4.353461e+00
6.801754035166439e-02	2.921892e+00	4.351007e+00
6.828260731595009e-02	2.574127e+00	4.348553e+00
6.854767428023580e-02	2.202976e+00	4.346101e+00
6.871508499452150e-02	1.962235e+00	4.344553e+00
6.888249570880721e-02	1.717788e+00	4.343006e+00
6.904990642309292e-02	1.469635e+00	4.341459e+00
6.921731713737861e-02	1.217776e+00	4.339913e+00
6.938472785166432e-02	9.622104e-01	4.338368e+00
6.955213856595002e-02	7.029389e-01	4.336823e+00
6.971954928023573e-02	4.399612e-01	4.335278e+00
7.001251803023571e-02	-1.966323e-02	4.332576e+00
7.011017428023571e-02	-1.733858e-01	4.331676e+00
7.020783053023570e-02	-3.265861e-01	4.330776e+00
7.030548678023570e-02	-4.792643e-01	4.329876e+00
7.040314303023569e-02	-6.314202e-01	4.328977e+00
7.050079928023568e-02	-7.830540e-01	4.328077e+00
7.059845553023568e-02	-9.341655e-01	4.327178e+00
7.069611178023567e-02	-1.084755e+00	4.326279e+00
7.090537517309281e-02	-1.406294e+00	4.324353e+00
