time	V(vin)	V(vo)
0.000000000000000e+00	0.000000e+00	0.000000e+00
6.126882785057169e-08	9.624086e-05	7.947927e-05
1.225376557011434e-07	1.924817e-04	1.491564e-04
1.838064835517151e-07	2.887226e-04	2.090315e-04
2.450753114022868e-07	3.849634e-04	2.591045e-04
3.063441392528585e-07	4.812043e-04	2.993754e-04
3.676129671034301e-07	5.774451e-04	3.298442e-04
4.288817949540017e-07	6.736859e-04	3.505110e-04
6.110839039134553e-07	9.598883e-04	4.044366e-04
8.960591660621988e-07	1.407526e-03	4.432265e-04
1.951812230141144e-06	3.065899e-03	4.706916e-04
1.194206505974266e-05	1.875875e-02	4.716313e-04
2.193231788934417e-05	3.445108e-02	4.780794e-04
3.192257071894568e-05	5.014289e-02	4.900360e-04
4.191282354854720e-05	6.583417e-02	5.075011e-04
5.190307637814871e-05	8.152493e-02	5.304746e-04
6.189332920775022e-05	9.721516e-02	5.589566e-04
7.188358203735171e-05	1.129049e-01	5.929470e-04
1.429253799367402e-04	2.244312e-01	1.889017e-03
1.918116261221447e-04	3.011147e-01	6.845706e-03
2.331834326255363e-04	3.659562e-01	2.065696e-02
2.791576588251740e-04	4.379379e-01	5.170216e-02
3.301816282243562e-04	5.177185e-01	1.027258e-01
4.081785315785177e-04	6.394096e-01	1.979053e-01
4.901126839182091e-04	7.668288e-01	3.076139e-01
5.877689339182091e-04	9.180275e-01	4.445691e-01
6.854251839182091e-04	1.068709e+00	5.858288e-01
7.830814339182092e-04	1.218037e+00	7.267942e-01
8.807376839182092e-04	1.366012e+00	8.674652e-01
9.783939339182094e-04	1.512633e+00	1.007842e+00
1.076050183918209e-03	1.657901e+00	1.147924e+00
1.173706433918209e-03	1.801815e+00	1.287712e+00
1.271362683918209e-03	1.944376e+00	1.427206e+00
1.494576969632495e-03	2.265870e+00	1.741965e+00
1.717791255346781e-03	2.572670e+00	2.042779e+00
1.941005541061067e-03	2.864775e+00	2.329646e+00
2.164219826775353e-03	3.142186e+00	2.602567e+00
2.387434112489639e-03	3.404903e+00	2.861542e+00
2.610648398203925e-03	3.652925e+00	3.106571e+00
2.833862683918211e-03	3.886253e+00	3.337654e+00
3.308193041061067e-03	4.319360e+00	3.766580e+00
3.782523398203923e-03	4.645653e+00	4.089709e+00
4.256853755346780e-03	4.865131e+00	4.307042e+00
4.731184112489635e-03	4.977795e+00	4.418579e+00
5.205514469632492e-03	4.983644e+00	4.424321e+00
5.679844826775348e-03	4.882678e+00	4.324266e+00
6.154175183918203e-03	4.674898e+00	4.118416e+00
6.433193041061059e-03	4.496762e+00	3.941642e+00
6.712210898203915e-03	4.288768e+00	3.735604e+00
6.991228755346772e-03	4.050916e+00	3.500303e+00
7.270246612489628e-03	3.783205e+00	3.235739e+00
7.549264469632484e-03	3.485637e+00	2.941911e+00
7.828282326775340e-03	3.158210e+00	2.618820e+00
8.107300183918196e-03	2.800925e+00	2.266466e+00
8.260760005346767e-03	2.596806e+00	2.065168e+00
8.414219826775338e-03	2.387900e+00	1.860008e+00
8.567679648203909e-03	2.174205e+00	1.650985e+00
8.721139469632480e-03	1.955722e+00	1.438101e+00
8.874599291061051e-03	1.732451e+00	1.221355e+00
9.028059112489622e-03	1.504393e+00	1.000747e+00
9.181518933918192e-03	1.271546e+00	7.762764e-01
9.376831433918192e-03	9.726299e-01	4.939998e-01
9.474487683918191e-03	8.217281e-01	3.554933e-01
9.572143933918191e-03	6.700528e-01	2.224983e-01
9.669800183918191e-03	5.177469e-01	1.043968e-01
9.756572313085993e-03	3.820027e-01	2.746309e-02
9.807807888172300e-03	3.017113e-01	5.462068e-03
9.855217440694047e-03	2.273455e-01	1.863457e-04
9.878356330317617e-03	1.910309e-01	-3.369757e-04
9.908191017156136e-03	1.441932e-01	-4.426926e-04
9.952075142039368e-03	7.527734e-02	-4.780507e-04
1.017930858190085e-02	-2.815083e-01	-4.172807e-04
1.031881751047228e-02	-5.009923e-01	-3.868549e-04
1.045832643904371e-02	-7.184811e-01	-3.593389e-04
1.059783536761513e-02	-9.339748e-01	-3.347326e-04
1.073734429618656e-02	-1.147473e+00	-3.130361e-04
1.087685322475799e-02	-1.358977e+00	-2.942494e-04
1.101636215332942e-02	-1.568485e+00	-2.783724e-04
1.115587108190085e-02	-1.775998e+00	-2.654051e-04
1.140698715332942e-02	-2.143849e+00	-2.424804e-04
1.165810322475799e-02	-2.493269e+00	-2.207433e-04
1.190921929618656e-02	-2.824259e+00	-2.001937e-04
1.216033536761513e-02	-3.136818e+00	-1.808317e-04
1.241145143904370e-02	-3.430947e+00	-1.626573e-04
1.266256751047227e-02	-3.706645e+00	-1.456704e-04
1.291368358190084e-02	-3.963912e+00	-1.298710e-04
1.352752286761513e-02	-4.480396e+00	-9.204076e-05
1.414136215332942e-02	-4.818912e+00	-5.415468e-05
1.475520143904370e-02	-4.979460e+00	-1.621280e-05
1.536904072475799e-02	-4.962040e+00	2.178489e-05
1.598288001047228e-02	-4.766652e+00	5.983837e-05
1.659671929618657e-02	-4.393297e+00	9.794767e-05
1.721055858190085e-02	-3.841973e+00	1.361128e-04
1.744772376047229e-02	-3.589019e+00	1.512480e-04
1.768488893904372e-02	-3.320141e+00	1.675354e-04
1.792205411761515e-02	-3.035340e+00	1.849751e-04
1.815921929618658e-02	-2.734615e+00	2.035670e-04
1.839638447475802e-02	-2.417967e+00	2.233111e-04
1.863354965332945e-02	-2.085394e+00	2.442076e-04
1.887071483190088e-02	-1.736899e+00	2.662562e-04
1.901022376047231e-02	-1.528778e+00	2.792779e-04
1.914973268904374e-02	-1.318741e+00	2.953992e-04
1.928924161761517e-02	-1.106788e+00	3.146201e-04
1.942875054618660e-02	-8.929169e-01	3.369405e-04
1.956825947475803e-02	-6.771294e-01	3.623604e-04
1.970776840332946e-02	-4.594252e-01	3.908800e-04
1.984727733190089e-02	-2.398042e-01	4.224991e-04
1.994493358190089e-02	-8.649381e-02	4.535426e-04
2.004258983190089e-02	6.689796e-02	5.967187e-04
2.014024608190090e-02	2.202268e-01	2.626289e-03
2.020605698153844e-02	3.234475e-01	1.173321e-02
2.025297052812807e-02	3.969470e-01	3.251266e-02
2.030218278322152e-02	4.739549e-01	7.379958e-02
2.037557099034042e-02	5.885777e-01	1.569580e-01
2.045632363527190e-02	7.143388e-01	2.616698e-01
2.055397988527190e-02	8.658033e-01	3.967488e-01
2.074929238527190e-02	1.166146e+00	6.765824e-01
2.088880131384334e-02	1.379035e+00	8.806916e-01
2.102831024241476e-02	1.588290e+00	1.082143e+00
2.116781917098619e-02	1.793914e+00	1.280938e+00
2.130732809955763e-02	1.995904e+00	1.477076e+00
2.144683702812906e-02	2.194262e+00	1.670556e+00
2.158634595670049e-02	2.388987e+00	1.861378e+00
2.172585488527192e-02	2.580080e+00	2.049544e+00
2.199092184955764e-02	2.932398e+00	2.396508e+00
2.225598881384335e-02	3.259252e+00	2.718631e+00
2.252105577812907e-02	3.560643e+00	3.015914e+00
2.278612274241479e-02	3.836570e+00	3.288354e+00
2.305118970670051e-02	4.087032e+00	3.535954e+00
2.331625667098623e-02	4.312031e+00	3.758713e+00
2.358132363527194e-02	4.511567e+00	3.956630e+00
2.408355577812910e-02	4.792507e+00	4.234971e+00
2.458578792098624e-02	4.953236e+00	4.394229e+00
2.508802006384339e-02	4.993754e+00	4.434404e+00
2.559025220670055e-02	4.914060e+00	4.355496e+00
2.609248434955769e-02	4.714155e+00	4.157505e+00
2.659471649241485e-02	4.394039e+00	3.840432e+00
2.709694863527199e-02	3.953711e+00	3.404276e+00
2.732016292098628e-02	3.726247e+00	3.178971e+00
2.754337720670057e-02	3.483667e+00	2.939236e+00
2.776659149241486e-02	3.225972e+00	2.685071e+00
2.798980577812915e-02	2.953161e+00	2.416475e+00
2.821302006384344e-02	2.665235e+00	2.133449e+00
2.843623434955773e-02	2.362193e+00	1.835993e+00
2.865944863527202e-02	2.044036e+00	1.524107e+00
2.875710488527202e-02	1.902760e+00	1.385815e+00
2.885476113527202e-02	1.760033e+00	1.246879e+00
2.895241738527202e-02	1.615856e+00	1.107299e+00
2.905007363527202e-02	1.470227e+00	9.670753e-01
2.914772988527202e-02	1.323148e+00	8.262068e-01
2.924538613527202e-02	1.174617e+00	6.846941e-01
2.934304238527203e-02	1.024636e+00	5.425372e-01
2.944069863527203e-02	8.740348e-01	4.029919e-01
2.953835488527203e-02	7.226110e-01	2.674178e-01
2.963601113527203e-02	5.705072e-01	1.429071e-01
2.973366738527203e-02	4.178663e-01	4.263782e-02
2.978770363651164e-02	3.332272e-01	1.149215e-02
2.984599321714475e-02	2.418189e-01	6.350080e-04
2.986401538384386e-02	2.135392e-01	-1.945491e-04
2.989848272533083e-02	1.594359e-01	-4.142000e-04
2.993109465751830e-02	1.082278e-01	-4.706382e-04
3.006127139905108e-02	-9.623895e-02	-4.509419e-04
3.017287854190823e-02	-2.719575e-01	-4.208679e-04
3.028448568476537e-02	-4.468075e-01	-3.936536e-04
3.039609282762252e-02	-6.207891e-01	-3.692988e-04
3.050769997047966e-02	-7.939022e-01	-3.478036e-04
3.061930711333680e-02	-9.661468e-01	-3.291680e-04
3.073091425619395e-02	-1.137523e+00	-3.133920e-04
3.084252139905109e-02	-1.308031e+00	-3.004756e-04
3.106573568476538e-02	-1.646763e+00	-2.762237e-04
3.128894997047967e-02	-1.973558e+00	-2.535549e-04
3.151216425619396e-02	-2.288417e+00	-2.324694e-04
3.173537854190825e-02	-2.591338e+00	-2.129670e-04
3.195859282762253e-02	-2.882323e+00	-1.950478e-04
3.218180711333683e-02	-3.161371e+00	-1.787117e-04
3.240502139905111e-02	-3.428481e+00	-1.639589e-04
3.278169550619398e-02	-3.843164e+00	-1.390533e-04
3.315836961333683e-02	-4.194433e+00	-1.145676e-04
3.353504372047970e-02	-4.482288e+00	-9.050183e-05
3.391171782762256e-02	-4.706729e+00	-6.685593e-05
3.428839193476543e-02	-4.867756e+00	-4.362992e-05
3.466506604190828e-02	-4.965370e+00	-2.082381e-05
3.504174014905115e-02	-4.999570e+00	1.562419e-06
3.540446336333686e-02	-4.953234e+00	2.314624e-05
3.576718657762259e-02	-4.848300e+00	4.513172e-05
3.612990979190830e-02	-4.684768e+00	6.751888e-05
3.649263300619403e-02	-4.462637e+00	9.030771e-05
3.685535622047974e-02	-4.181908e+00	1.134982e-04
3.721807943476547e-02	-3.842581e+00	1.370904e-04
3.758080264905118e-02	-3.444655e+00	1.610842e-04
3.780401693476548e-02	-3.178587e+00	1.758220e-04
3.802723122047976e-02	-2.900487e+00	1.921112e-04
3.825044550619405e-02	-2.610355e+00	2.099516e-04
3.847365979190834e-02	-2.308192e+00	2.293434e-04
3.869687407762263e-02	-1.993996e+00	2.502866e-04
3.892008836333692e-02	-1.667769e+00	2.727811e-04
3.914330264905121e-02	-1.329510e+00	2.968269e-04
3.925490979190835e-02	-1.159195e+00	3.093612e-04
3.936651693476550e-02	-9.879849e-01	3.248227e-04
3.947812407762264e-02	-8.158793e-01	3.432112e-04
3.958973122047978e-02	-6.428781e-01	3.645268e-04
3.970133836333693e-02	-4.689814e-01	3.887695e-04
3.981294550619408e-02	-2.941891e-01	4.159392e-04
3.992455264905122e-02	-1.185013e-01	4.460360e-04
4.002220889905122e-02	3.488537e-02	5.247722e-04
4.011986514905122e-02	1.882392e-01	1.731409e-03
4.019367651071011e-02	3.040387e-01	9.160602e-03
4.024575179844207e-02	3.856426e-01	2.884534e-02
4.029695775133541e-02	4.657838e-01	6.842885e-02
4.035675454752342e-02	5.592163e-01	1.338256e-01
4.044581809264636e-02	6.980022e-01	2.478559e-01
4.054347434264637e-02	8.495458e-01	3.819564e-01
4.073878684264637e-02	1.150093e+00	6.613656e-01
4.087829577121780e-02	1.363165e+00	8.655029e-01
4.101780469978923e-02	1.572635e+00	1.067036e+00
4.115731362836066e-02	1.778501e+00	1.265966e+00
4.129682255693209e-02	1.980763e+00	1.462292e+00
4.143633148550352e-02	2.179422e+00	1.656014e+00
4.157584041407495e-02	2.374478e+00	1.847132e+00
4.171534934264638e-02	2.565931e+00	2.035646e+00
4.198041630693210e-02	2.919021e+00	2.383341e+00
4.224548327121782e-02	3.246724e+00	2.706277e+00
4.251055023550353e-02	3.549040e+00	3.004453e+00
4.277561719978926e-02	3.825968e+00	3.277869e+00
4.304068416407497e-02	4.077509e+00	3.526525e+00
4.330575112836069e-02	4.303662e+00	3.750422e+00
4.357081809264641e-02	4.504428e+00	3.949559e+00
4.407305023550356e-02	4.787954e+00	4.230463e+00
4.457528237836071e-02	4.951226e+00	4.392241e+00
4.507751452121786e-02	4.994246e+00	4.434894e+00
4.557974666407501e-02	4.917012e+00	4.358421e+00
4.608197880693216e-02	4.719525e+00	4.162822e+00
4.658421094978931e-02	4.401784e+00	3.848098e+00
4.708644309264646e-02	3.963791e+00	3.414248e+00
4.730965737836075e-02	3.737227e+00	3.189832e+00
4.753287166407504e-02	3.495483e+00	2.950914e+00
4.775608594978933e-02	3.238561e+00	2.697495e+00
4.797930023550361e-02	2.966460e+00	2.429574e+00
4.820251452121790e-02	2.679181e+00	2.147152e+00
4.842572880693219e-02	2.376722e+00	1.850229e+00
4.864894309264648e-02	2.059085e+00	1.538805e+00
4.874659934264648e-02	1.918010e+00	1.400697e+00
4.884425559264648e-02	1.775470e+00	1.261904e+00
4.894191184264648e-02	1.631464e+00	1.122426e+00
4.903956809264649e-02	1.485992e+00	9.822641e-01
4.913722434264649e-02	1.339054e+00	8.414168e-01
4.923488059264649e-02	1.190651e+00	6.998846e-01
4.933253684264649e-02	1.040782e+00	5.576676e-01
4.943019309264649e-02	8.902780e-01	4.178775e-01
4.952784934264649e-02	7.389359e-01	2.816922e-01
4.962550559264649e-02	5.868983e-01	1.552836e-01
4.972316184264650e-02	4.343084e-01	5.071696e-02
4.977971510945757e-02	3.457466e-01	1.425366e-02
4.983358436672367e-02	2.612860e-01	1.374647e-03
4.985598909821146e-02	2.261346e-01	-4.133858e-05
4.988545010596455e-02	1.798957e-01	-3.634120e-04
4.991632281389198e-02	1.314247e-01	-4.560080e-04
4.996847956194148e-02	4.951138e-02	-4.760472e-04
5.021390023220110e-02	-3.357409e-01	-4.084344e-04
5.036736005362967e-02	-5.771337e-01	-3.770873e-04
5.052081987505824e-02	-8.158174e-01	-3.487612e-04
5.067427969648682e-02	-1.051792e+00	-3.234561e-04
5.082773951791539e-02	-1.285057e+00	-3.011720e-04
5.098119933934397e-02	-1.515613e+00	-2.819089e-04
5.113465916077254e-02	-1.743460e+00	-2.656667e-04
5.128811898220111e-02	-1.968598e+00	-2.524456e-04
5.155318594648683e-02	-2.349747e+00	-2.295972e-04
5.181825291077255e-02	-2.708841e+00	-2.078224e-04
5.208331987505826e-02	-3.045881e+00	-1.871212e-04
5.234838683934399e-02	-3.360867e+00	-1.674937e-04
5.261345380362970e-02	-3.653798e+00	-1.489398e-04
5.287852076791542e-02	-3.924675e+00	-1.314595e-04
5.314358773220114e-02	-4.173498e+00	-1.150528e-04
5.371557433934401e-02	-4.600955e+00	-8.008109e-05
5.428756094648687e-02	-4.873122e+00	-4.500360e-05
5.485954755362973e-02	-4.989999e+00	-9.820335e-06
5.543153416077260e-02	-4.951587e+00	2.546870e-05
5.600352076791547e-02	-4.757885e+00	6.086351e-05
5.657550737505833e-02	-4.408893e+00	9.636408e-05
5.714749398220120e-02	-3.904612e+00	1.319704e-04
5.738465916077263e-02	-3.657259e+00	1.470539e-04
5.762182433934406e-02	-3.393539e+00	1.631991e-04
5.785898951791549e-02	-3.113453e+00	1.804061e-04
5.809615469648692e-02	-2.817001e+00	1.986749e-04
5.833331987505835e-02	-2.504182e+00	2.180054e-04
5.857048505362979e-02	-2.174996e+00	2.383977e-04
5.880765023220122e-02	-1.829444e+00	2.598518e-04
5.894715916077265e-02	-1.622788e+00	2.726762e-04
5.908666808934408e-02	-1.414029e+00	2.881820e-04
5.922617701791551e-02	-1.203168e+00	3.063693e-04
5.936568594648694e-02	-9.902040e-01	3.272381e-04
5.950519487505837e-02	-7.751378e-01	3.507883e-04
5.964470380362980e-02	-5.579692e-01	3.770200e-04
5.978421273220123e-02	-3.386983e-01	4.059331e-04
5.997952523220124e-02	-3.216147e-02	4.709808e-04
6.007718148220124e-02	1.212245e-01	9.692927e-04
6.017483773220124e-02	2.744964e-01	6.514499e-03
6.023423466549253e-02	3.676030e-01	2.352392e-02
6.028728642105922e-02	4.506561e-01	5.949473e-02
6.034046801497381e-02	5.337867e-01	1.145133e-01
6.042500366369465e-02	6.656124e-01	2.200852e-01
6.051307794375332e-02	8.024555e-01	3.394448e-01
6.061073419375333e-02	9.534638e-01	4.772734e-01
6.070839044375333e-02	1.103921e+00	6.188338e-01
6.080604669375333e-02	1.252992e+00	7.599830e-01
6.090370294375333e-02	1.400677e+00	9.007211e-01
6.100135919375333e-02	1.546977e+00	1.041048e+00
6.109901544375333e-02	1.691890e+00	1.180964e+00
6.119667169375333e-02	1.835418e+00	1.320468e+00
6.129432794375334e-02	1.977559e+00	1.459562e+00
6.151754222946762e-02	2.297963e+00	1.773371e+00
6.174075651518190e-02	2.603531e+00	2.073075e+00
6.196397080089619e-02	2.894264e+00	2.358672e+00
6.218718508661047e-02	3.170163e+00	2.630164e+00
6.241039937232476e-02	3.431227e+00	2.887549e+00
6.263361365803904e-02	3.677455e+00	3.130829e+00
6.285682794375333e-02	3.908849e+00	3.360002e+00
6.347066722946758e-02	4.441377e+00	3.887357e+00
6.408450651518183e-02	4.795904e+00	4.238436e+00
6.469834580089608e-02	4.972428e+00	4.413237e+00
6.531218508661034e-02	4.970952e+00	4.411762e+00
6.592602437232459e-02	4.791474e+00	4.234010e+00
6.653986365803884e-02	4.433994e+00	3.879981e+00
6.715370294375309e-02	3.898513e+00	3.349675e+00
6.737691722946736e-02	3.666230e+00	3.119614e+00
6.760013151518163e-02	3.419178e+00	2.875512e+00
6.782334580089590e-02	3.157354e+00	2.617369e+00
6.804656008661018e-02	2.880760e+00	2.345185e+00
6.826977437232445e-02	2.589396e+00	2.058961e+00
6.849298865803873e-02	2.283261e+00	1.758696e+00
6.871620294375300e-02	1.962356e+00	1.444390e+00
6.881385919375299e-02	1.820021e+00	1.305120e+00
6.891151544375299e-02	1.676315e+00	1.165452e+00
6.900917169375298e-02	1.531238e+00	1.025387e+00
6.910682794375297e-02	1.384790e+00	8.849232e-01
6.920448419375297e-02	1.236971e+00	7.440620e-01
6.930214044375296e-02	1.087781e+00	6.028028e-01
6.939979669375296e-02	9.372203e-01	4.611459e-01
6.949745294375295e-02	7.861238e-01	3.235010e-01
6.959510919375295e-02	6.342873e-01	1.928259e-01
6.969276544375294e-02	4.818539e-01	7.881715e-02
6.976120474743704e-02	3.747470e-01	2.288458e-02
6.980911758021006e-02	2.996577e-01	4.384931e-03
6.984383968291497e-02	2.451977e-01	3.991288e-04
6.986721982345467e-02	2.085101e-01	-2.235576e-04
6.989674050909994e-02	1.621712e-01	-4.095179e-04
6.993825693464710e-02	9.697970e-02	-4.744835e-04
6.999858739156117e-02	2.135973e-03	-4.616848e-04
7.005891784847525e-02	-9.262420e-02	-4.484451e-04
7.011924830538932e-02	-1.873008e-01	-4.347644e-04
7.017957876230341e-02	-2.818939e-01	-4.206426e-04
7.023990921921748e-02	-3.764034e-01	-4.060797e-04
7.030023967613155e-02	-4.708294e-01	-3.910759e-04
7.036057013304563e-02	-5.651718e-01	-3.756309e-04
7.052798084733133e-02	-8.272995e-01	-3.474382e-04
7.069539156161704e-02	-1.085388e+00	-3.217262e-04
7.086280227590275e-02	-1.339437e+00	-2.984950e-04
7.103021299018844e-02	-1.589448e+00	-2.777444e-04
7.119762370447415e-02	-1.835419e+00	-2.594746e-04
7.136503441875985e-02	-2.077351e+00	-2.436856e-04
7.153244513304556e-02	-2.315244e+00	-2.303772e-04
7.181146299018840e-02	-2.700448e+00	-2.082789e-04
7.209048084733125e-02	-3.058654e+00	-1.870268e-04
7.236949870447408e-02	-3.389860e+00	-1.666207e-04
7.264851656161693e-02	-3.694068e+00	-1.470607e-04
7.292753441875977e-02	-3.971276e+00	-1.283468e-04
7.320655227590261e-02	-4.221486e+00	-1.104790e-04
7.348557013304545e-02	-4.444696e+00	-9.345727e-05
7.401570406161685e-02	-4.761056e+00	-6.140455e-05
7.454583799018824e-02	-4.943932e+00	-2.914824e-05
7.507597191875964e-02	-4.993325e+00	3.311683e-06
7.560610584733105e-02	-4.909234e+00	3.597520e-05
7.613623977590245e-02	-4.691660e+00	6.884232e-05
7.666637370447384e-02	-4.340602e+00	1.019130e-04
7.719650763304524e-02	-3.856061e+00	1.351874e-04
7.743367281161666e-02	-3.604346e+00	1.503109e-04
7.767083799018806e-02	-3.336608e+00	1.665658e-04
7.790800316875948e-02	-3.052848e+00	1.839521e-04
7.814516834733090e-02	-2.753065e+00	2.024698e-04
7.838233352590232e-02	-2.437259e+00	2.221190e-04
7.861949870447373e-02	-2.105430e+00	2.428995e-04
7.885666388304514e-02	-1.757578e+00	2.648114e-04
7.899617281161657e-02	-1.549777e+00	2.777911e-04
7.913568174018798e-02	-1.340018e+00	2.937699e-04
7.927519066875940e-02	-1.128300e+00	3.127478e-04
7.941469959733083e-02	-9.146244e-01	3.347249e-04
7.955420852590225e-02	-6.989903e-01	3.597010e-04
7.969371745447366e-02	-4.813980e-01	3.876763e-04
7.983322638304509e-02	-2.618476e-01	4.186508e-04
7.993088263304508e-02	-1.085608e-01	4.482286e-04
8.002853888304508e-02	4.482817e-02	5.417657e-04
8.012619513304507e-02	1.981749e-01	1.912668e-03
8.019645147144995e-02	3.083894e-01	9.463070e-03
8.024593945772707e-02	3.859365e-01	2.860336e-02
8.029621742746809e-02	4.646260e-01	6.774344e-02
8.035790843957659e-02	5.610174e-01	1.353578e-01
8.044849489711185e-02	7.021655e-01	2.514384e-01
8.054500898911461e-02	8.519213e-01	3.840935e-01
8.074032148911460e-02	1.152439e+00	6.635907e-01
8.087983041768602e-02	1.365484e+00	8.677231e-01
8.101933934625744e-02	1.574923e+00	1.069244e+00
8.115884827482886e-02	1.780753e+00	1.268154e+00
8.129835720340028e-02	1.982976e+00	1.464452e+00
8.143786613197171e-02	2.181592e+00	1.658139e+00
8.157737506054312e-02	2.376599e+00	1.849214e+00
8.171688398911454e-02	2.567999e+00	2.037678e+00
8.198195095340025e-02	2.920977e+00	2.385267e+00
8.224701791768595e-02	3.248556e+00	2.708084e+00
8.251208488197165e-02	3.550737e+00	3.006129e+00
8.277715184625734e-02	3.827519e+00	3.279403e+00
8.304221881054304e-02	4.078903e+00	3.527905e+00
